s22a,s22m,s12a,s12m,s32a,s32m,s42a,s42m,s21a,s21m,s11a,s11m,s31a,s31m,s41a,s41m,s23a,s23m,s13a,s13m,s33a,s33m,s43a,s43m,s24a,s24m,s14a,s14m,s34a,s34m,s44a,s44m,wavelengths,freqs
-2.9421700764059535,0.019231628883362294,0.4321733941571303,0.0016289713158478135,-2.396990584556662,1.0550690308230695,0.10682867414214611,0.2102425909675964,0.4674424118602855,0.0017353194388612875,-3.0514251276876823,0.016932624488095457,0.13183762848921435,0.19417559219978367,-0.508308171236818,0.98089150900872,-2.3969906241283963,1.0550690065115125,0.10682941485829774,0.18859688896744148,-2.9421662491027085,0.01923187410763574,0.4276954886525812,0.0018164132171442273,0.13314252766062676,0.21707036936485147,-0.508239717170244,0.9808878482901041,0.5951489676446742,0.002314186990886393,-3.0334760779094077,0.017285549219030822,1.5,0.6666666666666666
-2.921507659141949,0.019138074949197045,-0.1309520036149729,0.0015344514390537329,-2.8217981047737952,1.0545889640147132,-0.24820291744056683,0.21148477409883798,-0.09083579035165443,0.0016324158419746683,-3.1167155792422507,0.017018750982212488,-0.22325106054204752,0.195361714880369,-0.7934390953561128,0.980654840260727,-2.8217980907688904,1.054588918248378,-0.24820219612048963,0.1897758725240823,-2.9215149159505134,0.019138299013615023,-0.13494408656774773,0.0017121495426060094,-0.22205930821101,0.21832371577895993,-0.793366757638247,0.980650067384272,0.029986164960343245,0.0022140814518552547,-3.1113400450294746,0.01735617288671288,1.5020408163265306,0.6657608695652174
-2.8908762533573062,0.0199131327189065,-0.7307609049424297,0.0014197894993482904,-3.2454656380777887,1.0542629866778257,-0.6024723135024233,0.21271222063756434,-0.6848561673745737,0.0015058630489248588,-3.1742214907149426,0.01658526045964392,-0.5775700135802481,0.1965391911864278,-1.0777736603043797,0.9804230473072948,-3.245465594146173,1.054262990872875,-0.6024716126873517,0.19094208806422203,-2.890889644135618,0.019913172328619135,-0.7335241537274972,0.0015852387566010053,-0.5764871128761301,0.21956310465766554,-1.0776977676737214,0.9804197173679153,-0.5623359557369119,0.002071795762886572,-3.179066586139357,0.016820571685689695,1.5040816326530613,0.6648575305291723
-2.89207704809861,0.021575686862984906,-1.371147458376632,0.001305874554614697,-3.6680490470350833,1.0540396371930882,-0.9558770583566525,0.21390620095707844,-1.3192702543548531,0.0013771527538047764,-3.2115788546118815,0.015760582484719177,-0.9310327069869615,0.1976909536000408,-1.3613222474965845,0.9801995599299822,-3.668049041776366,1.05403968056484,-0.9558763424594232,0.19207871065371632,-2.8920867765708635,0.021575513437105284,-1.3718696427505352,0.001458207265431415,-0.930046701137197,0.22077078760495095,-1.3612443771275426,0.9801995851734694,-1.1851006184990946,0.0019111370866162155,-3.223021379571373,0.01583230814577338,1.506122448979592,0.6639566395663956
-2.947418544977392,0.023529823921052045,-2.0492161330223047,0.00121492551407939,-4.089564210241126,1.053859194321118,-1.3082950901283048,0.2150656940998593,-1.993024960214555,0.0012698095268251126,-3.217628882175129,0.014765196530169843,-1.283531431770619,0.1988140279526141,-1.6440954730262693,0.9799828771744641,-4.089564246370097,1.0538592072989048,-1.3082943244490461,0.19318480559346987,-2.9474197426250726,0.02352955294487536,-2.047482268213654,0.0013551385458062505,-1.2826289278419012,0.22194542243471954,-1.6440178718542897,0.9799870234639065,-1.838448122449387,0.0017579080384419578,-3.229916764479467,0.014649188942923084,1.5081632653061225,0.6630581867388362
-3.0504061027064324,0.024953436919959535,-2.749496233320415,0.0011620210075825256,-4.509998811610247,1.053679359226881,-1.6596406426198123,0.21620545155114854,-2.693021078192084,0.0012012642715388175,-3.1861608424983405,0.013886492433183862,-1.6349850256639258,0.19991828499393355,-1.9261011665001824,0.9797676129400107,-4.5099988284317645,1.0536793270763112,-1.659639853733026,0.1942736067341507,-3.0503998204916285,0.024953214938433537,-2.7459146931715788,0.0012927674817790912,-1.6341570499548839,0.22309956408705484,-1.9260260221359824,0.9797754085708328,-2.5155611776553313,0.0016329168893275436,-3.191246594756574,0.013613322622018502,1.510204081632653,0.6621621621621622
-3.180500831644405,0.02519698477842127,-3.44673754993005,0.0011462151998124445,-4.929333713917915,1.0534829041214402,-2.009897660438964,0.21734698342838335,-3.3947449127217535,0.0011732834295609224,-3.1232744434815984,0.013410309682336512,-1.9853679694685618,0.2010198454327967,-2.20734270259814,0.9795470681417171,-4.9293336882713366,1.053482883539497,-2.0098969448572985,0.19536442759938488,-3.180490447874346,0.025196911253101823,-3.4429107701251414,0.0012709096304701149,-1.9846123468142192,0.22425161120111903,-2.2072715396665985,0.9795571022764341,-3.201275113580759,0.0015435930205731844,-3.113803330417044,0.013074376174637485,1.5122448979591836,0.6612685560053981
-3.3129039190774017,0.023986858641355285,-4.119297485575032,0.0011496347574475555,-5.347558933773291,1.0532683838691363,-2.359115920414785,0.2185074090774448,-4.074697952109985,0.0011694116741286112,-3.0509708643810725,0.013500483244352901,-2.334709919218871,0.2021328134146257,-2.487819326891928,0.9793161515161493,-5.347558911939004,1.053268406936847,-2.359115383335271,0.1964726537700271,-3.3128934186169885,0.02398696520039202,-4.116897620092337,0.0012709763920938403,-2.3340295467496635,0.2254166402866108,-2.4877527024170982,0.9793265844681224,-3.8770244331542036,0.0014796389212930864,-3.026091118174143,0.01323098468770762,1.5142857142857142,0.6603773584905661
-3.4189633698398407,0.02150331992089481,-4.758746355991205,0.0011462682359788564,-5.7646761667583695,1.053035161557547,-2.707375360270887,0.21969207800121532,-4.721983990271999,0.0011631128929816012,-2.9960849366047984,0.014106717595255305,-2.6830700752153303,0.2032634956716937,-2.767528201994034,0.9790733511246458,-5.764676185267959,1.0530351877216324,-2.707375083199874,0.19760311307102157,-3.4189575353327015,0.021503566858117926,-4.758784290755124,0.0012649738917921067,-2.6824689227712035,0.22660060270298713,-2.767465710872864,0.9790824307000899,-4.529069588942704,0.0014174129333807373,-2.9624570537737873,0.014004586169133927,1.5163265306122449,0.6594885598923285
-3.464060971834515,0.018395524082565038,-5.367762699587592,0.001111952573015602,-6.180690567435745,1.0527748812648405,-3.0547410521978686,0.22089445244238942,-5.337940413821947,0.0011286316254958645,-2.973474409068185,0.0150057911567396,-3.0305028894513613,0.20440959632251446,-3.04646712442525,0.9788209596353499,-6.180690596161374,1.0527748664587553,-3.0547411294508606,0.19874994751431588,-3.4640654212842703,0.018395793094280553,-5.370611088888047,0.0012263638182722371,-3.029982528893003,0.2278001742220697,-3.0464076209473308,0.9788274158249722,-5.152141588994304,0.001329907874041338,-2.939456150662333,0.015106539840648229,1.5183673469387755,0.6586021505376344
-3.418090410097468,0.015695813264625404,-5.954083539196162,0.0010295767281736778,-6.595601266356585,1.0524741312665877,-3.4012345339165835,0.2221024251596332,-5.9300427507774645,0.001047178090820787,-2.982522572610905,0.015930174576297428,-3.3770342301043836,0.20556402057323447,-3.324636623518232,0.9785636242216558,-6.595601258959859,1.052474097126403,-3.401235080907155,0.19990226861988158,-3.4181069889178053,0.015695928108762032,-5.959821376747633,0.001136025419414264,-3.3765928122939006,0.2290073831695384,-3.3245785573300455,0.9785669063758977,-5.7470077031055595,0.0011951639377120675,-2.953807736347763,0.01621354994061755,1.5204081632653061,0.6577181208053691
-3.3013378259536714,0.014355009684287382,-6.5273642673365195,0.0008902505494826547,-7.009399080169016,1.0521237987719558,-3.7468354722760897,0.22330668170169765,-6.508203390731386,0.0009085229135706155,-3.0142685550472983,0.01666548978015008,-3.722659266747341,0.2067204680178267,-3.6020405531671784,0.9783060737733309,-7.009399045921368,1.052123797081043,-3.746836562433552,0.20105168474437524,-3.3013551773400303,0.01435486947687299,-6.53610834984488,0.0009837605072161913,-3.722292991318818,0.2302157123644764,-3.601982359798,0.9783064299496655,-6.315974383767161,0.0010001189299179113,-2.9936020964142944,0.01707943541453271,1.5224489795918368,0.6568364611260054
-3.2006625777191395,0.014319407138874111,-7.100927761035921,0.0006927902623168892,-7.422073037264886,1.0517260283867158,-4.091508937854343,0.22450591382448842,-7.086277367386152,0.0007105752908726874,-3.0577475920094934,0.017086915086286104,-4.067359957432352,0.20787726913302915,-3.8786850900599754,0.9780511868517826,-7.422073025495049,1.0517260627141958,-4.091510577577397,0.20219701705405926,-3.2006656436313015,0.014319124269506114,-7.113211724676358,0.0007678583740568599,-4.067065553685129,0.2314239073595235,-3.8786255922622077,0.978049567912826,-6.857477888431601,0.0007411344175039986,-3.045931345261478,0.01756568001008286,1.5244897959183674,0.6559571619812583
-3.1632010402648465,0.01450007961226971,-7.707679149741699,0.00044320704717321725,-7.833620093006756,1.051292186798707,-4.435239053157355,0.22570588032190764,-7.698208613938665,0.00045892102767590816,-3.102666444674961,0.017162463023255053,-4.411128857275836,0.20903722465285338,-4.154576835232962,0.9777992793360432,-7.833620120174685,1.0512922089568197,-4.435241251064278,0.20334345810812024,-3.163188584600796,0.01449985559982169,-7.725381380955456,0.0004946892042334655,-4.41090526501023,0.23263534931501267,-4.154515571765337,0.9777970435089556,-7.346472833103848,0.0004234123351397482,-3.0992326192504662,0.017639195944707833,1.526530612244898,0.6550802139037433
-3.1499152352854263,0.013925327577529796,-8.598809411875061,0.00016237724426843006,-8.244049654534876,1.0508324518602568,-4.778046926784953,0.22691310282879645,-8.589966484201483,0.00017501939445798475,-3.1402526972952876,0.016944697620841644,-4.7539829954435096,0.21020372604741763,-4.429721088375226,0.9775487904141873,-8.244049682144112,1.0508324321295355,-4.778049731580749,0.2044968792450483,-3.1498943809495,0.013925302568495324,-8.623252664428097,0.00018794722670154872,-4.753831251640567,0.23385358452479343,-4.429658438984335,0.9775472448949873,-7.149970043575935,7.899972680065565e-05,-3.143653355626133,0.017362877685091108,1.5285714285714287,0.6542056074766355
-3.0733097019395106,0.012554584718588406,-11.287522861692304,0.00020850121739984128,-8.653377948815443,1.0503444863924825,-5.119980503261957,0.22812727303699537,-11.226230073098034,0.00020943679402538358,-3.164063396104386,0.016555591696276697,-5.0959579711619725,0.21137573185039235,-4.704121160853064,0.9772978137318582,-8.653377939425422,1.0503444543982117,-5.119983923966675,0.20565699139689567,-3.0732930634591935,0.01255479494483368,-11.251293303996054,0.0002278740729759627,-5.095879578709724,0.23507693690529055,-4.704058165435556,0.9772977398817889,-5.602607696802444,0.00035821667302457993,-3.171675074143634,0.016881210685620138,1.530612244897959,0.6533333333333333
-2.8435015658309304,0.011768606988604017,-12.076634018081442,0.0005409168868297585,-9.061614568685233,1.0498104358297133,-5.461080873634837,0.2293374350607098,-12.043852852894876,0.0005480102275321632,-3.1715916319495148,0.01615912411009452,-5.437084394198358,0.21254498828057905,-4.977778961508665,0.9770455409819038,-9.061614538540828,1.0498104368436234,-5.461084812513171,0.20681391944411745,-2.84350787649392,0.011768897718894316,-12.068170071900742,0.0005923854446343205,-5.437079375469051,0.23629581345012315,-4.977716865346325,0.9770469113080553,-6.045490451856693,0.0007746781041187615,-3.180013523252295,0.016391970740523433,1.5326530612244897,0.6524633821571239
-2.565060018030179,0.013827368217418683,-12.663461748850866,0.0008825141506770302,-9.46874988402288,1.0492067475330147,-5.801344432773917,0.23052506323111469,-12.635866762792798,0.0008992589777114805,-3.1661973572418423,0.01591454442676605,-5.777359708387547,0.2136977721975808,-5.250696398981582,0.9767928241396833,-9.468749878525323,1.0492067771293039,-5.801348759501373,0.20795096580099173,-2.5650811785597045,0.013827440509371725,-12.661035504075913,0.0009698983759929603,-5.777425660037182,0.23749497482570076,-5.250636110261057,0.9767948503171077,-6.55244089645037,0.0011907999563726514,-3.1723437288107417,0.016092405049104898,1.5346938775510204,0.6515957446808511
-2.46640340563201,0.01880642673549273,-13.21670481617615,0.0012109179905156022,-9.874753010825327,1.0485228310829933,-6.140704417850801,0.23167325459019739,-13.190370289514831,0.0012383480472780415,-3.1572124530493912,0.015916038342242905,-6.1167323329704795,0.2148209871740945,-5.522876755602864,0.9765415890572848,-9.87475303706908,1.0485228419682284,-6.140709079070884,0.20905286641081022,-2.466416204831926,0.018806244945181752,-13.216466856148084,0.0013338980553561457,-6.116865136364326,0.23866037585579858,-5.522818449728821,0.9765430734565865,-7.0751553509425475,0.0015872398135756138,-3.159996218350517,0.01610339333694654,1.536734693877551,0.650730411686587
-2.5374904250874586,0.02481873219679824,-13.760900626577616,0.0015119734003534466,-10.279584614207826,1.047777704523252,-6.479046079774105,0.23277755634939848,-13.734388171163584,0.0015499213749738511,-3.1563129088462354,0.016148402380902226,-6.455109840686075,0.21590994723926535,-5.794325249580904,0.9762934398513426,-10.279584629242143,1.0477776784346013,-6.479051085964757,0.21011555497536583,-2.537493021359954,0.024818435625876777,-13.761410006502729,0.0016682653945963822,-6.455305694459641,0.23978756917697672,-5.794268260738195,0.9762932656505416,-7.606160044005932,0.0019481061699625853,-3.1575459839074673,0.016409571319879003,1.5387755102040817,0.649867374005305
-2.6988702480376725,0.03018318846917158,-14.30405504487579,0.0017748589499760202,-10.683219940235272,1.047023025820155,-6.816252111467979,0.23385256544227076,-14.276668572480375,0.0018219855842661877,-3.1720747337909168,0.016491140632832735,-6.792391283260775,0.21697393749340835,-6.065048427363568,0.9760481967536901,-10.683219916759437,1.0470230040581059,-6.816257463140941,0.21115216163378833,-2.698866225356777,0.03018290510275407,-14.304555464156364,0.001960619030417042,-6.792648974865596,0.24088745666493366,-6.064991423084057,0.9760457742988918,-8.144146070524522,0.0022609774493465152,-3.1756481451664733,0.016862517755050214,1.5408163265306123,0.6490066225165563
-2.9022241808773446,0.0337146378341662,-14.850185462111916,0.001992077233925149,-11.085670252951099,1.0463272467818105,-7.1522585808314485,0.2349301730961968,-14.821592754019301,0.0020459872815309353,-3.206987920409962,0.016766911710057023,-7.1285115199857145,0.21803630238560107,-6.335052604653778,0.9758031614687825,-11.085670225006815,1.0463272680594051,-7.152264293624519,0.21219146716935572,-2.9022163891974215,0.033714464933428924,-14.850216397717245,0.002202245391320882,-7.128833704249513,0.24198600393386582,-6.334993956195976,0.9757987183040483,-8.689531012630265,0.002517549843073093,-3.21730543298105,0.017243093225509484,1.542857142857143,0.6481481481481481
-3.1189491981859785,0.034655604355840225,-15.402013081529462,0.0021596401787593593,-11.48698966393017,1.0457459285748112,-7.487094832859714,0.23604927120644556,-15.372155045675623,0.0022172139360976074,-3.2580238774472603,0.016799256114003437,-7.463478258565603,0.219128114484426,-6.604342064828099,0.9755535910120621,-11.48698967783971,1.045745965558171,-7.487101026963501,0.21326860530872468,-3.1189399895657055,0.034655602815287366,-15.401294944549466,0.0023883485496298935,-7.463870984095896,0.24311706799883845,-6.604280319454681,0.9755482553915872,-9.243421642123728,0.0027140957123401727,-3.279009090235193,0.0173338571290955,1.5448979591836736,0.6472919418758256
-3.3247325765542732,0.032713641252362625,-15.96179520043977,0.002277157770350847,-11.887260482605566,1.0452920117125784,-7.820886777004892,0.23724089595424844,-15.930889445179185,0.002335080825419583,-3.318457143826553,0.01645422765616665,-7.797383874969508,0.22027739736714083,-6.872917909492012,0.9752942952391644,-11.887260523444999,1.0452920077560128,-7.820893657483499,0.2144116270616328,-3.3247243919435965,0.03271381758721853,-15.960195770478258,0.002518211381250312,-7.797854438097059,0.2443106140207757,-6.872852272174562,0.9752899434588219,-9.807260718849491,0.002851673468567238,-3.3533161046297897,0.016968120065832714,1.5469387755102042,0.646437994722955
-3.4852903653713048,0.028179019032318186,-16.531625813737463,0.002347817408631247,-12.28656105849507,1.0449219800836864,-8.153818916637125,0.23851517301862693,-16.50019589102176,0.0024032233423279727,-3.378873962068007,0.015664378125587786,-8.130383812906572,0.22149809755555613,-7.140778210102367,0.9750216968495682,-12.286561067275981,1.0449219359855288,-8.153826636890255,0.21562970777648569,-3.4852863121794164,0.02817931790998445,-16.529154618003595,0.002595232583886931,-8.13093783634188,0.24558090754195636,-7.140708914150949,0.9750205616316799,-10.382610878991485,0.0029360860977198475,-3.430112921254891,0.016055571394592755,1.5489795918367348,0.6455862977602107
-3.5320937987124728,0.022229122645181797,-17.113494795196377,0.002378254509219943,-12.684930073686033,1.0445475494235752,-8.4860692669968,0.23985595145616873,-17.082370739640623,0.002429364370044685,-3.4267514662167455,0.01444462809088622,-8.462647638030495,0.22278346638578578,-7.407919506699381,0.9747354089461343,-12.684930035159645,1.044547527172697,-8.486077860279568,0.21690829545493462,-3.5320988891992666,0.022229421797596717,-17.110303790436543,0.0026268258126560763,-8.46328668047777,0.24691965861136017,-7.407847939060403,0.9747395192449055,-10.970891661459484,0.0029775499911409444,-3.4957862719381008,0.014597698190736254,1.5510204081632653,0.6447368421052632
-3.34892654425475,0.017776095785752163,-17.70914094545676,0.0023782712439902806,-13.082344733071567,1.0440704074289908,-8.817744236499784,0.2412258435344974,-17.67937003759143,0.0024249006451230247,-3.4448324860986066,0.012910259031933139,-8.794301238040212,0.22410691669388902,-7.674339040296386,0.9744385772658185,-13.08234470182409,1.0440704394389824,-8.817753691722496,0.2182136271863829,-3.3489440546277436,0.017776177651009233,-17.705515905778373,0.002624117220391659,-8.795022004249503,0.24829728444169283,-7.6742675425243645,0.9744491829162406,-11.57297645936301,0.002989955280141151,-3.52998044262469,0.012707544107528074,1.5530612244897959,0.6438896189224704
-3.028321343102688,0.0191389707692784,-18.31965828651443,0.002360279211484448,-13.478724915696485,1.0434256813706255,-9.148841207085335,0.2425798815481717,-18.29226871179681,0.002404063529028092,-3.4099843334048185,0.011304638293345761,-9.125383169931002,0.22543040472393105,-7.9400367502184,0.974136810686921,-13.478724936448447,1.0434257202631372,-9.148851535996538,0.2195050292017075,-3.0283327591575504,0.019138729951781917,-18.315983188664912,0.0026012883300434667,-9.126178585502323,0.24967219360107848,-7.939968125036815,0.9741539707111974,-12.18863259230256,0.002989515624707567,-3.5000181518055675,0.010652615404979872,1.5551020408163265,0.6430446194225722
-2.9258747027976346,0.025749671200696527,-18.944848527082648,0.002338247593620078,-13.873963551737132,1.0426144486436215,-9.479254377448802,0.24388218727842828,-18.92045992715133,0.0023824103815980025,-3.3003298087746775,0.010025044352824634,-9.455832512336382,0.2267172834506978,-8.205016193362823,0.973836166117354,-13.873963591489078,1.0426144371194368,-9.479265554455356,0.2207499948134957,-2.9258729545276134,0.025749346533818936,-18.94152635284485,0.002574312032615463,-9.456693981344701,0.2510047221597216,-8.204953043279879,0.9738586312543688,-12.81593696141197,0.0029926251749879266,-3.3619381966071216,0.00893705931435203,1.5571428571428572,0.6422018348623854
