s22a,s22m,s21a,s21m,s23a,s23m,s24a,s24m,s12a,s12m,s11a,s11m,s13a,s13m,s14a,s14m,s32a,s32m,s31a,s31m,s33a,s33m,s34a,s34m,s42a,s42m,s41a,s41m,s43a,s43m,s44a,s44m,wavelengths,freqs
-2.0878908193924874,0.029103136949087248,-2.3420615416182593,0.004492892624148816,0.5197746033176119,0.9561283757109967,-3.0953169616662897,0.22354627977542513,-2.363590375773596,0.005857354286028759,-3.125507794920889,0.03465180200942936,-3.116477320941594,0.22323710224329713,2.6900033546045727,0.9742477516306038,0.519789309331563,0.9558197294074151,-3.0957231498129523,0.17177526312586847,-2.2925444919063387,0.023861332269458888,-2.4250446565050523,0.004122731622720739,-3.1160887825255763,0.29038500721716964,2.6900061109855864,0.9742589125976964,-2.4483640680865575,0.005351720680486072,-3.126943721055875,0.034743778754751674,1.5,0.6666666666666666
-2.5593427123714245,0.04076112189581905,-3.045688414537334,0.004923991959147309,0.08157458807544585,0.956066582596854,-3.462095642930456,0.22477298488751804,-3.0642306167744726,0.006400808258152492,-3.1374307427659693,0.034823377894759616,-3.483091430840053,0.22459170960466923,2.3946933038693197,0.9739046692229659,0.081585101711498,0.9558647226649654,-3.4624155405667034,0.17287510420911,-2.6275956137188867,0.03347831920210502,-3.0780919448919923,0.004597201991780258,-3.482786234696551,0.2919106672983754,2.3946942290278175,0.9739123885562461,-3.1001476757603297,0.005969636780783818,-3.1376822308308854,0.03491027947115705,1.5020408163265306,0.6657608695652174
-3.010494669163862,0.04575454589277774,-3.7423779608028065,0.005317796477218424,-0.3554675416326489,0.9561845066312475,-3.827949232671866,0.22603797306997836,-3.7607396524901175,0.006890354317500037,-3.153329925641367,0.03470376412220742,-3.849303922087983,0.22595393312974052,2.1002705670224997,0.973573964455096,-0.3555589927464819,0.9560590261219548,-3.828265886799535,0.17400314970996092,-2.98658112792024,0.03793464629142555,-3.7318520744612567,0.0050457065052898755,-3.8490938084197843,0.2934405900769961,2.1002725009379017,0.9735761945820457,-3.7534926159768536,0.006553689227467004,-3.153582352693074,0.034849173327307977,1.5040816326530613,0.6648575305291723
-3.4730936729282225,0.04278274337312815,-4.432790815011441,0.005644633550160066,-0.7915113329023363,0.956447985808579,-4.1930217619998995,0.22733359342354456,-4.453230645600317,0.007291431417008209,-3.1673035648713053,0.03423551150703829,-4.214994515078573,0.2272336988825184,1.8067158025598133,0.9732767035931309,-0.7917354258053358,0.956308418338,-4.193354910419677,0.17514361635913311,-3.3627214209605087,0.036036354802786004,-4.384721222947685,0.005444047034940103,-4.214889762485395,0.2948559746376803,1.8067227436442175,0.9732742631117667,-4.406683594238956,0.007067389668173653,-3.1701125015140543,0.034439583175708416,1.506122448979592,0.6639566395663956
-3.9878663979657922,0.03217662992012009,-5.119239307997493,0.005876365506404951,-1.2266831909765161,0.9566797439297446,-4.557426554444576,0.22861866557624314,-5.142802456855629,0.007572709745829801,-3.1728546663535138,0.033509914979112425,-4.57981134227893,0.22837479106610403,1.5139984437434433,0.9730204139237025,-1.2269823315619697,0.9564542297772457,-4.55771319589985,0.17626871929772087,-3.7623463675762343,0.02764844685441126,-5.037197857413656,0.005767555913665012,-4.579816197365517,0.2960827729527378,1.514012967498006,0.9730171728519758,-5.0596732055734694,0.007476183255529564,-3.1804223165251098,0.03368635315710546,1.5081632653061225,0.6630581867388362
-4.752138931598404,0.016684838909762634,-5.80477361587472,0.005993250555754042,-1.660936608266071,0.9566199422145015,-4.92110752882385,0.22983083616397423,-5.83116538276283,0.007714211263157637,-3.165681855911074,0.03275797936304808,-4.9433227638412305,0.2293844993497616,1.222088187746496,0.9727942929695409,-1.6612214656815159,0.9563177560394277,-4.921260000256546,0.1773457715960642,-4.246058874505161,0.013842910507653771,-5.690777908292543,0.005995442813037664,-4.9434342303861545,0.29713058609786336,1.2221093191100814,0.9727954375970103,-5.713370992094988,0.007754971379238086,-3.177689766759336,0.03276542035898765,1.510204081632653,0.6621621621621622
-6.716526807305552,0.012884677463919527,-6.492381019348436,0.005988955887281111,-2.0940098581984063,0.9560922739193998,-5.283793349497644,0.2309256003454617,-6.520281261243872,0.007711459383820705,-3.1467430767739493,0.032267300262066416,-5.305223320016317,0.23033326214989636,0.9309676246556465,0.9725732254911517,-2.0942470682246674,0.9557934520652939,-5.283789879358259,0.17835369350287364,-6.917773324198383,0.0049370928169066635,-6.347055373686314,0.006115193769147781,-5.305432780538947,0.29809141709598125,0.9309905376476438,0.9725823593542056,-6.369093413151451,0.007892784155396033,-3.1589441587396423,0.031996340851677074,1.5122448979591836,0.6612685560053981
-7.7106200105621205,0.030283226259690762,-7.184430322149842,0.005872042681142866,-2.5255461268470416,0.9551590541375068,-5.645114997609374,0.231914749771699,-7.212020005661696,0.007574574676763068,-3.1233647169948537,0.032239086218433154,-5.6654860944230165,0.23132109756820515,0.6406391757987542,0.9723294761726184,-2.525799615171266,0.9549369649502151,-5.645041273022404,0.17929958522251951,-7.797209631604142,0.022533721088356516,-7.007132198684288,0.006125296901202144,-5.665780677291966,0.2990951060629704,0.6406571860523869,0.9723461794133166,-7.028107634042288,0.007893129455582577,-3.128978138928037,0.031711332024649506,1.5142857142857142,0.6603773584905661
-8.242984983062511,0.04679059419790126,-7.8823214923171685,0.005662503533115623,-2.955313742375529,0.9541358679747487,-6.004824647037577,0.23287171704014772,-7.907824608039973,0.007322936857689938,-3.1059057311300995,0.03266541914704399,-6.024371219197361,0.23242739683077196,0.3511220108314597,0.9720462354900083,-2.9557021250611046,0.9539782485412576,-6.004826529988482,0.18022261698805048,-8.222916936130673,0.03879351409613874,-7.6712961118927705,0.006034540970675978,-6.024732635422568,0.3002440999197447,0.3511299145978755,0.972065619696913,-7.69120561571344,0.007770022455005035,-3.100022507357864,0.032060928859497656,1.5163265306122449,0.6594885598923285
-8.683586541657405,0.05733527914138858,-8.586293900506993,0.005383778481015459,-3.38337546208533,0.9534344968245575,-6.362961928063451,0.2338951645207946,-8.608451167093877,0.006977375378218362,-3.1017137428381125,0.033325865915555676,-6.3822791235034515,0.2336725432909754,0.062440119694789256,0.9717255919130063,-3.383978569560845,0.9532272404685505,-6.363147393358469,0.18117854021906765,-8.603400588380355,0.05055722813996375,-8.338900241916845,0.0058573308099231745,-6.382680654052888,0.30156475470471733,0.06243704136582714,0.9717402412680004,-8.358324223668347,0.007541015040050303,-3.0848552205177024,0.032899847863288215,1.5183673469387755,0.6586021505376344
-9.079697977201969,0.06003942600950845,-9.295506660029787,0.005053241492877232,-3.810083910272644,0.9533309207748744,-6.719847624621489,0.23505414149651832,-9.313954311778087,0.006552606313950215,-3.1115750902161423,0.03390653431847778,-6.739535252127651,0.23501403078567282,-0.22539206672713952,0.9713863095120939,-3.8108672811580666,0.9529170304555328,-6.720212404473978,0.18221177506058187,-8.95855451586582,0.05610077518568745,-9.008418131086678,0.005606463646917494,-6.7399399595379705,0.30300378917056364,-0.22540186131305312,0.9713896156615587,-9.028327361891566,0.00721947050730649,-3.089218037937333,0.03386027040480282,1.5204081632653061,0.6577181208053691
-9.431523038684814,0.05476430036817171,-10.008654528283847,0.0046755367160279115,-4.235899723028457,0.9538076415641862,-7.07590854297924,0.23635049805146605,-10.024136032889128,0.006052701267355111,-3.1305082457757782,0.03414817998253499,-7.09623915637094,0.23637814408715022,-0.5123784147523329,0.9710525241141827,-4.2367095390473235,0.95308269891379,-7.076334696223939,0.18333241840610473,-9.283865639416506,0.05488309256927302,-9.677681494264117,0.005286565532518522,-7.0966023620170935,0.3044700694446604,-0.5123871320376886,0.9710417437332334,-9.699100277402001,0.006808732398737334,-3.1102018782659218,0.03454057550209002,1.5224489795918368,0.6568364611260054
-9.707475129494627,0.043125475742476244,-10.72532644662602,0.004242219847593402,-4.661146002242988,0.9545677118069092,-7.431446878323926,0.23772107492045338,-10.739634942334643,0.005471600441174237,-3.15058781477818,0.03394618215641078,-7.452265176587235,0.2377053711762146,-0.7985391003634341,0.9707398443954187,-4.661781628952791,0.9535514189299039,-7.431773006931358,0.18451272006959113,-9.559524721522084,0.047696174232655965,-10.344298603616021,0.004891545199146242,-7.452541960186481,0.30589270272120445,-0.7985386797173079,0.9707174597395671,-10.368004713276235,0.006300456631552557,-3.139268075795493,0.03467181911236034,1.5244897959183674,0.6559571619812583
-9.79727470360427,0.028979658378834355,-11.448228206353658,0.0037383250458502245,-5.0858514524272,0.9552085177919788,-7.786495328827041,0.23907688329710391,-11.463873287045082,0.004799125089532183,-3.1638710869688005,0.03338354334484498,-7.807398053927216,0.23897983881444013,-1.0838990570145985,0.9704471350627114,-5.08617307645677,0.9540438494572049,-7.786614129582926,0.1857043628115876,-9.735457974879413,0.03683440458353548,-11.006195768638635,0.004407427804820986,-7.807553567801181,0.30725716736998004,-1.083884617371556,0.9704199044675251,-11.03255391495088,0.005677951175365537,-3.1658393536751346,0.03420645440958651,1.526530612244898,0.6550802139037433
-9.461672081345364,0.020873271560286035,-12.186986220936532,0.0031537436281547917,-5.509775475940588,0.955443152211704,-8.14084100228595,0.24035419919539383,-12.206704922231847,0.004031599936666839,-3.1652865165171287,0.03269733140828234,-8.161500596354447,0.24022529641188708,-1.368473990972901,0.9701590588742434,-5.509777177801542,0.9543193555742765,-8.140762099997426,0.18686501805146208,-9.701881310322511,0.02663574999246486,-11.662176188347258,0.0038189700556382285,-8.161518971205759,0.30859786625928975,-1.3684459077202291,0.9701351301338412,-11.691059673548558,0.004923262512482291,-3.180420928306699,0.03333189513300914,1.5285714285714287,0.6542056074766355
-9.127378981512773,0.026312397239267857,-12.966898613420257,0.002498022518505173,-5.932587272488013,0.9552270075320668,-8.494192463412922,0.2415450518671039,-12.993040113985943,0.0031876908249774036,-3.155298273550517,0.03217622799698438,-8.51459716024392,0.24147357633621,-1.6522629410315595,0.9698577644047,-5.932386714012695,0.9542765222982328,-8.494029735251344,0.18797767558884607,-9.429023420937845,0.023402998700621996,-12.312439706591707,0.0031167016820418995,-8.514484789054878,0.30995600885733016,-1.6522265241897904,0.969843132977351,-12.343113301728,0.0040251337885713985,-3.1780893330921347,0.032404032145441165,1.530612244897959,0.6533333333333333
-9.203512704578175,0.03497117989365208,-13.854119342903687,0.0018276058060806568,-6.3540684051797065,0.9547160011911406,-8.846370803804586,0.24268861546321505,-13.886863316773496,0.002341623471611397,-3.1404685664151235,0.032012708694232506,-8.866820526016621,0.2427302014748011,-1.9352523705948597,0.9695360022558585,-6.353823212410797,0.9539544669103835,-8.846264347555916,0.18905154786198164,-9.282428548821947,0.027423802296435405,-12.959349279002359,0.002301643157257936,-8.866601893084784,0.31133548080781936,-1.9352152277925023,0.9695320328005725,-12.99013952288792,0.0029848620488092674,-3.161800342523024,0.031790639422458564,1.5326530612244897,0.6524633821571239
-9.444282745707069,0.038913399930690144,-15.000730092948633,0.001330785564483907,-6.774201836569365,0.9541052919847252,-9.197394766732373,0.2438327640541648,-15.029239131247868,0.0017252482697706162,-3.129915309056446,0.0321917068438126,-9.21826800603716,0.24396327981920748,-2.217429138073175,0.969202720772956,-6.774012807257956,0.9534502273004762,-9.197421401616747,0.19010633615968917,-9.362240339790503,0.031582227210867314,-13.610997037552172,0.0013869591245718252,-9.217976024967422,0.31269028285298384,-2.217397543296506,0.969205995791406,-13.637888341741483,0.0018184267102975163,-3.1419852147542233,0.031672955519833554,1.5346938775510204,0.6515957446808511
-9.725468486663836,0.03597006329603638,-16.368600514079162,0.0013975234551441961,-7.193102853415908,0.9534765596316156,-9.547411791288557,0.24499571189951233,-16.37834349753365,0.0018004265089521237,-3.1295889500706644,0.032503856174311535,-9.568878306068832,0.24512479959096836,-2.4987935107740578,0.9688770931007114,-7.192967643388208,0.9528237269250739,-9.5475432966788,0.19115332229394208,-9.530450867805321,0.031711278449739276,-14.342741371999079,0.0003986247755123276,-9.568544058812313,0.3139542342103105,-2.498769670423987,0.9688816077857693,-14.336212928530431,0.0005558501862405735,-3.1301563620687,0.03194095793506375,1.536734693877551,0.650730411686587
-9.964090556096824,0.026616966748727548,-17.469042732095676,0.002019167771122144,-7.610862610686112,0.9527620238562475,-9.896539399245507,0.24615595201792723,-17.479561499044248,0.002563327489728704,-3.139088567871375,0.032673566108936306,-9.918426599906388,0.24618969693473025,-2.779363122072584,0.9685748008887073,-7.6107034304114745,0.9520625545577934,-9.896672944998144,0.19218801375395328,-9.674312120231281,0.027237471104266015,-11.610644217544579,0.0006425447531016608,-9.918073401546431,0.315092772604643,-2.7793446964557154,0.9685752496921236,-11.661152358883133,0.0007730532682762002,-3.1314443518107993,0.03227782215751337,1.5387755102040817,0.649867374005305
-9.899709206959864,0.014145433161774263,-18.32494353409944,0.002837168472723745,-8.027431625008592,0.9518406577496127,-10.244744726915382,0.24727694559998997,-18.341553659009083,0.0035897199691315804,-3.152526044777067,0.03250699627112364,-10.266652323990852,0.24718427280086058,-3.059164749626137,0.9682957850536126,-8.02716851718926,0.9511280978163742,-10.244778747569224,0.19319951064221166,-9.643271850573663,0.020553283053380094,-12.297900527529562,0.0016851544856334533,-10.266296200944002,0.31613949875067954,-3.0591467194165447,0.9682901879291289,-12.335166756895743,0.002116333861001181,-3.142483308866885,0.03235875409460285,1.5408163265306123,0.6490066225165563
-8.918933208829277,0.013299835047722412,-19.078701424628164,0.003679839061006242,-8.442635715531823,0.9506831886128307,-10.591860318974602,0.24834621102220755,-19.09954593064197,0.004667344356152507,-3.1614206189245433,0.031986729972088464,-10.61344049991653,0.24818114328029914,-3.3382189110608147,0.9680218896189557,-8.442249487302067,0.9500399492041661,-10.591758205591828,0.19418850837024582,-9.297329400548897,0.01825594780643809,-12.947357085142201,0.0027065484726797712,-10.61309537407682,0.3171883485373994,-3.338196686462968,0.9680122720413097,-12.977875446995268,0.003442669496487039,-3.1541732591246707,0.03202417736729815,1.542857142857143,0.6481481481481481
-8.804879713594573,0.02674385809398604,-19.789591404003122,0.00448624247358152,-8.856313059665121,0.949423927701632,-10.937726787299514,0.24939589090550698,-19.812877946400352,0.005715370316447802,-3.1581680016732196,0.03129401386226375,-10.958933037572573,0.24925943095719924,-3.6165271101685685,0.9677265429474804,-8.855857638348326,0.9489200218047599,-10.93752636491484,0.19517776208110812,-9.088475788074767,0.024455308102728425,-13.593464939512193,0.0036851300025362434,-10.958616337043345,0.3183407595343454,-3.6164992417902155,0.967717412270255,-13.619231142475716,0.004721602662864886,-3.1559504320912177,0.03136465764788359,1.5448979591836736,0.6472919418758256
-9.088230319675462,0.038756186416618724,-20.481342632906657,0.0052391625380978695,-9.268462053673538,0.948294685854176,-11.282347094473797,0.25048592770707967,-20.50577871737238,0.006701298349131051,-3.1400702255467103,0.03075174676236328,-11.303480874430756,0.25045298406918226,-3.8940701712556263,0.9673910146340133,-9.268028220165421,0.9479438218244342,-11.28212069786723,0.1962031239494316,-9.213625827850313,0.03273157323273531,-14.240959296723688,0.004615162649235707,-11.303215281768887,0.3196382871634928,-3.8940392532003334,0.967386447442519,-14.263575640848739,0.005935348550861943,-3.1408008573600608,0.030707563148972605,1.5469387755102042,0.646437994722955
-9.478831605706183,0.045267060905203,-21.164258281657226,0.005943675291780289,-9.679279707092764,0.9474675216683399,-11.625926576463023,0.25166149560794343,-21.188748329186534,0.007616937492225757,-3.1127453733737798,0.030679412643844935,-11.647446548079298,0.25172038894039933,-4.170819549393085,0.9670174875151717,-9.678942213953322,0.9472230735328666,-11.62572887905563,0.19728887147073013,-9.505087139806326,0.03788711105193678,-14.890803135039986,0.00550478606209063,-11.647256232983219,0.3210246417445581,-4.170790771060154,0.9670183586472414,-14.911611418800227,0.007079883098210038,-3.110950332717815,0.030483152964667713,1.5489795918367348,0.6455862977602107
-9.94193750627986,0.045019716588807414,-21.84247847222389,0.006614227420964023,-10.089055893068085,0.9469206867701495,-11.968764134336977,0.25291563438311604,-21.866001579748023,0.0084684324664433,-3.0889744776542023,0.031203834001820852,-11.990969839589402,0.25295977326418695,-4.446755717983624,0.9666306112631561,-10.088835904116493,0.9467054666409204,-11.968600379912827,0.19842486140629612,-9.8952994323438,0.037776589728124144,-15.542458661224174,0.006368830737275273,-11.990873300099157,0.3223662965942018,-4.446733723769064,0.9666335223902416,-15.562317588339234,0.008163133923855821,-3.0799453061675277,0.030976072768124266,1.5510204081632653,0.6447368421052632
-10.509387860487617,0.038710585205141,-22.516707095541932,0.007263351604293674,-10.497987351158109,0.9464202126590958,-12.31106234386412,0.2541825342146617,-22.53847761972884,0.009268159526738057,-3.0813838583388296,0.032156561590540096,-12.33384313724299,0.2540644677439359,-4.721883107246056,0.9662655877853477,-10.497846985609206,0.9461704423500386,-12.310888483352171,0.19956307480878704,-10.396695718841217,0.03223600606161673,-16.194299471989282,0.0072190203104212855,-12.333847136950784,0.32352546317885605,-4.721868809981767,0.9662642408084252,-16.21358323698159,0.009199588595582713,-3.0653533981185235,0.03210805259224858,1.5530612244897959,0.6438896189224704
-11.293132242410223,0.030074370717450078,-23.185710411364916,0.007893446109698382,-10.906020734052664,0.9456407017780033,-12.652767182882906,0.2553685521311681,-23.205487899356562,0.01002672450525785,-3.095161584286677,0.03315018068904539,-12.675582811341872,0.25498973788482643,-4.996232348221126,0.9659487361753116,-10.905891930935601,0.9453410852730243,-12.652518690865984,0.2006396211289211,-11.127682736451746,0.023714544948671208,-16.843951292539487,0.008056113183611992,-12.675681149879129,0.324446047021268,-4.996221484976486,0.965937179315552,-16.862835884913164,0.010202630583599869,-3.0772607186654772,0.03345102041032216,1.5551020408163265,0.6430446194225722
-12.375685697664,0.028111361647560847,-23.847553312816387,0.008494103059675084,-11.312828053040501,0.9443762165453766,-12.99353918958888,0.2564091027578994,-23.865886148662813,0.010746411102870501,-3.126847402410667,0.03376079675003439,-13.015671884546519,0.2557921446600663,-5.269847428054195,0.965681382643896,-11.312661192297194,0.944063585587042,-12.993174539165619,0.2016135828621972,-12.28184021859384,0.020574796256654412,-17.488868960757664,0.008867507039141975,-13.015849492827956,0.3252029583382878,-5.2698317704520665,0.9656575103301217,-17.50774537658275,0.011177145005845,-3.114162640148678,0.03444647349012937,1.5571428571428572,0.6422018348623854
