s22a,s22m,s12a,s12m,s32a,s32m,s42a,s42m,s21a,s21m,s11a,s11m,s31a,s31m,s41a,s41m,s23a,s23m,s13a,s13m,s33a,s33m,s43a,s43m,s24a,s24m,s14a,s14m,s34a,s34m,s44a,s44m,wavelengths,freqs
3.075608214190524,0.026235968995518878,1.310992250065418,0.0013301357647625034,-2.4125339394977905,1.052664745370643,0.09100086914952978,0.2092186073218286,1.3131260007919732,0.0014045114500042487,-3.0688002659821767,0.017123144453782456,0.11621931286530181,0.19393374826635895,-0.5236772663402683,0.9809461302761394,-2.412533986961428,1.0526647235050988,0.0910059120768643,0.1876825661960313,3.075613123385689,0.02623618990631958,1.3067636638581195,0.0014788843223899203,0.11690226962852047,0.21684537735846968,-0.5236132165694722,0.9809523821066195,1.231468946101379,0.0019611711291965743,-3.053779530966184,0.017518248648182803,1.5,0.6666666666666666
2.918641248405687,0.024663224168181386,0.7407120837844078,0.0012268804976413104,-2.8373564876357555,1.052399003676713,-0.26409652768058756,0.2104604832051036,0.7478925105358147,0.0012994151082710821,-3.136694216760929,0.017078530319868092,-0.23899249995375632,0.19511699269906496,-0.8088084168533826,0.9807136259673377,-2.8373564744489967,1.0523989511556242,-0.2640910636031149,0.1888607667920064,2.9186397719254455,0.02466348389982236,0.7365466864239095,0.0013659125302058163,-0.23842277236213602,0.21809319640894054,-0.808740421531396,0.9807182639682468,0.6550987926371112,0.0018241014510476479,-3.134743440215324,0.017442034108224685,1.5020408163265306,0.6657608695652174
2.794202007030874,0.021826941254761433,0.16073658382246286,0.0010964959994484108,-3.261116139688392,1.0522513446786403,-0.6184142625298481,0.21168230773567845,0.17378844422808512,0.001163859489325133,-3.194158683757738,0.016506929276092385,-0.5933943966913442,0.19628030442485836,-1.0931466960216993,0.9804893334983196,-3.261116089933658,1.0522513497376353,-0.6184085528396135,0.19002144430522763,2.794192742907034,0.021827118231255115,0.1573987038263734,0.0012226258705622282,-0.5929324750555162,0.21931454492452854,-1.0930748547858427,0.9804951138570316,0.07290928024812111,0.0016507667522820328,-3.2030161093734257,0.01674751740881563,1.5040816326530613,0.6648575305291723
2.728495998746778,0.01844103733445712,-0.43355464522586146,0.0009498376840798443,-3.6838431810161967,1.052142615153073,-0.9718504676812786,0.21287069181793106,-0.4137679036598327,0.0010093852316628296,-3.2282734352947626,0.01555703789536434,-0.9468861221259386,0.19741476948676065,-1.3767033536041184,0.9802739848319589,-3.683843178310243,1.0521426645693395,-0.9718446942961295,0.19115253420942294,2.728481303717481,0.01844102134848143,-0.43503906291788996,0.0010605978491419542,-0.946519972720975,0.2205015033393576,-1.3766291616232404,0.9802830641669679,-0.51760013312231,0.0014547787509330214,-3.244105585499426,0.01560826175874551,1.506122448979592,0.6639566395663956
2.7453784709828954,0.015356706400943942,-1.0463185806006277,0.0007986249976085451,-4.105523701335044,1.052003859590619,-1.3243021584794623,0.21402780382511624,-1.0190415253148228,0.0008484539881796465,-3.227153098480432,0.014474573571603831,-1.2993770236621365,0.1985246353459346,-1.6594880489022146,0.9800636211973931,-4.105523743967343,1.0520038681245365,-1.3242963840392512,0.19225594936849158,2.7453676978512127,0.015356493358019823,-1.0447115032745473,0.0008923964523517804,-1.2990973555247807,0.2216610016987896,-1.6594137874487738,0.9800769930267873,-1.1174418219996474,0.0012498113265283746,-3.2433303147276837,0.014310249166235923,1.5081632653061225,0.6630581867388362
2.843537124658069,0.013279832572915928,-1.6798717211896104,0.0006533223752054302,-4.526120219493301,1.0517977839653565,-1.6757084386956653,0.21516705022454807,-1.6448100141544484,0.0006923423588424919,-3.1848765883634975,0.013575394980617531,-1.6508211090842166,0.19962235529461678,-1.9415064457563842,0.9798516763461211,-4.5261202307220625,1.0517977436437882,-1.6757026702794235,0.19334373107385938,2.84354213421139,0.013279574083654511,-1.6739993302290246,0.0007293812661560032,-1.6506271637255074,0.222807747781832,-1.9414344340770955,0.9798690498510709,-1.7247918041754247,0.00104725921678661,-3.1916255025100035,0.01323307196826245,1.510204081632653,0.6621621621621622
2.9775420567028963,0.01237497977570458,-2.3318692286723577,0.0005206410615964898,-4.945596489679098,1.051519646677649,-2.026066465811319,0.21630419861223954,-2.2897978512578865,0.000548714395091448,-3.110672703142104,0.01316235386096301,-2.0012247413990623,0.20072083434396598,-2.222759695290886,0.979631956125526,-4.945596454348616,1.051519633058716,-2.0260607856731094,0.19443005345684677,2.977562103568244,0.012374878683459871,-2.3212572243039764,0.0005791248159988217,-2.0011231044630695,0.22395517454749642,-2.2226916660695486,0.9796520093336842,-2.3328325238928516,0.0008541158853326664,-3.0991949985300367,0.012757327187163185,1.5122448979591836,0.6612685560053981
3.0988136142518337,0.012249425996131854,-2.991554601615082,0.000401382149743648,-5.363932669628471,1.0511827635866275,-2.375415024009649,0.21744910557568045,-2.9448811939433726,0.0004194322295320098,-3.031694222182937,0.013381557508761618,-2.3506269637722497,0.20182715413139368,-2.5032459058587406,0.9794011214353029,-5.363932654859999,1.0511827992499314,-2.375409574731393,0.19552377259639145,3.0988328600385775,0.01224956586363082,-2.9772485658541954,0.0004431588968194786,-2.3506250578240633,0.22510931333913642,-2.503182632690036,0.9794219710904208,-2.9262715635748555,0.0006719637189959755,-3.00195706705078,0.013068781554391083,1.5142857142857142,0.6603773584905661
3.198245687750895,0.012507322512094101,-3.635819214013854,0.0002900088851008709,-5.781125755850796,1.0508013646740113,-2.7237991023892683,0.2186025789859549,-3.5884264301125484,0.0002998421454442482,-2.9770885741938318,0.014132799393675939,-2.6990668940021885,0.202940944916402,-2.7829627383358653,0.9791595775826721,-5.78112578915233,1.0508013835858259,-2.7237939917240173,0.1966256178389766,3.1982483376269353,0.012507602422428887,-3.620689952430488,0.0003163560030032771,-2.6991661975460053,0.22626839667550577,-2.782903944242193,0.9791793221696075,-3.472868350118781,0.0004984716792418503,-2.9380807644140847,0.014026290283272437,1.5163265306122449,0.6594885598923285
3.2811115710731316,0.013084502263553323,-4.2117987977404905,0.0001773964152267179,-6.19718030463039,1.0503817356641862,-3.071238923916134,0.21975957432667975,-4.168176169000654,0.00018110250265484444,-2.9595513341968998,0.015146264267533151,-3.0465586516445007,0.20405775078012292,-3.0619097704143994,0.9789105360297707,-6.197180327637365,1.0503817021897537,-3.071234230783562,0.1977310684471451,3.2810959774576847,0.013084702645862261,-4.1994238370194825,0.0001894552405779672,-3.04675232521783,0.2274275598404256,-3.0618543070725845,0.9789277517096401,-3.8893913363358417,0.00033436003118907646,-2.921224431009551,0.015278947442561851,1.5183673469387755,0.6586021505376344
3.337751198961008,0.014038751575368748,-4.340967198343897,6.227029252722721e-05,-6.612099189729618,1.0499242476978925,-3.417722414605356,0.22091601765636665,-4.297373949763436,6.154077536302744e-05,-2.97522795946177,0.016133190833878222,-3.393088511694824,0.20517479256605578,-3.340089516548432,0.9786579498091046,-6.612099161551596,1.04992421737291,-3.4177182617818223,0.19883646797789264,3.337731015328055,0.014038722160384013,-4.294761996149497,6.155147659140239e-05,-3.3933646757058917,0.22858515190057102,-3.3400357642965095,0.978672020808005,-3.911092964412559,0.0002128157726904639,-2.943789130616036,0.01647400889931146,1.5204081632653061,0.6577181208053691
3.3524509680105314,0.015211745238072687,-2.990859509629758,0.00011010624167007824,-7.02588145934893,1.049430656633451,-3.76322458203186,0.22207441604561298,-2.9280872110481337,0.00011317292508148028,-3.0130892372078715,0.016878873783145436,-3.738634881035599,0.20629515799463372,-3.6175067882835963,0.9784045167663126,-7.025881425459515,1.049430679532982,-3.763221123896392,0.1999440635707765,3.3524397515804227,0.015211520673815412,-2.9273653525362935,0.0001250701831117953,-3.7389829387891766,0.22974640061127155,-3.6174531619150008,0.9784157066977691,-3.571889135442834,0.0002547098205785543,-2.991278658270929,0.017362573601295058,1.5224489795918368,0.6568364611260054
3.325214489508193,0.016180821159460693,-3.347216227144948,0.00027169707278472323,-7.43852730518498,1.0489082960312583,-4.1077402204532385,0.2232442105427101,-3.301012872637662,0.0002782685646491878,-3.061207303099346,0.017269541138926765,-4.083197525282536,0.2074274252828334,-3.8941669631670157,0.9781507807354556,-7.438527318889833,1.0489083342610364,-4.10773756115494,0.20106234779557508,3.325216392378923,0.016180539984645838,-3.3193264493277947,0.00030289250387045423,-4.083613208102804,0.23092182805158537,-3.8941123611062523,0.9781600282038083,-3.730645563039891,0.0004387346943938108,-3.0496590377634645,0.017817899615548714,1.5244897959183674,0.6559571619812583
3.275945296910572,0.016489809862287427,-3.862898766819604,0.0004554133452328043,-7.850044097305714,1.048366575602251,-4.451307401224169,0.2244360600960517,-3.823325456377805,0.0004655810013803903,-3.108903779714312,0.017290434554463798,-4.426816316183906,0.20858049310914378,-4.1700742475259,0.97789568798066,-7.850044133285835,1.0483665697700844,-4.451305570282884,0.20220093293613312,3.275958452330784,0.016489618561907397,-3.8458303683132535,0.0005039611125290334,-4.42730233414114,0.23212092405889134,-4.170018297104907,0.977904207945215,-4.1433995015176475,0.0006684265801486666,-3.106935701364768,0.017826326457286785,1.526530612244898,0.6550802139037433
3.2392699266895244,0.01592817753458736,-4.399754133271778,0.0006524534256892728,-8.26044652713237,1.0478082621660805,-4.794003526291717,0.22565313045602953,-4.364389067113015,0.0006668176640140861,-3.147377852195235,0.017014228772755345,-4.769565076069342,0.20975638013456302,-4.4452309437909445,0.9776381470740423,-8.260446528063383,1.0478082273892624,-4.794002515770995,0.20336269425107809,3.2392885775523044,0.015928191090805618,-4.388825145554952,0.0007198860059487915,-4.770127250973846,0.2333444688767823,-4.445173971063019,0.9776469887019203,-4.632421589979988,0.0009134304203700069,-3.1531578661264,0.017473628249754878,1.5285714285714287,0.6542056074766355
3.261890417271873,0.014784351627350072,-4.938936638286296,0.0008550495679523134,-8.66974856835325,1.047223058557581,-5.135911466390409,0.22688474549854043,-4.906506244116777,0.0008742915601330049,-3.1705678213415838,0.016581262689697444,-5.111520014121822,0.21094528216700859,-4.719638132980347,0.9773786039644475,-8.66974853864997,1.0472230533118843,-5.135911236686402,0.20453802638660995,3.2619033411235168,0.014784585245817182,-4.932099079504978,0.0009425921820422164,-5.112161525327624,0.23458001251188682,-4.719580889191638,0.9773883274200572,-5.1488325861119515,0.001159394064954181,-3.181028697929687,0.016926351996695184,1.530612244897959,0.6533333333333333
3.3822875103659684,0.01405674868619678,-5.476832022646841,0.0010552694116065058,-9.077951687480326,1.046590298806474,-5.4770716939740955,0.22810695521440671,-5.446422971452795,0.0010799748564277564,-3.1768423572823976,0.016165809427731482,-5.452717161791808,0.2121263426873901,-4.993297377083768,0.9771196491672103,-9.077951680237515,1.0465903272862207,-5.477072143440618,0.2057053428138863,3.3822822962218138,0.014057040110480142,-5.472771758591853,0.0011635507367633066,-5.453434460964521,0.23580373385001338,-4.993240646889008,0.9771302316166455,-5.676750717219555,0.0013954403939256403,-3.187977310301863,0.016398026222617226,1.5326530612244897,0.6524633821571239
3.5528375894437287,0.015120840993188556,-6.013166748632052,0.0012455923090495169,-9.48503761351792,1.0458916357597838,-5.817446309113939,0.22929100560951313,-5.984041341597863,0.001276155975256811,-3.1707236896265782,0.015924203869480017,-5.7931208633098095,0.21327479394115462,-5.2662124630290945,0.9768652124233794,-9.485037639992733,1.0458916454359373,-5.8174472828399395,0.20683870612471886,3.552819236923199,0.015120946410039872,-6.010881139901711,0.001374469119345698,-5.793903601601706,0.23698882590552645,-5.266156719876794,0.9768761923392077,-6.2101851897699545,0.0016125667079334655,-3.1789274429940524,0.01608897836499914,1.5346938775510204,0.6515957446808511
3.6447940359566506,0.018328544793262097,-6.548384568437861,0.0014194343185306697,-9.89097229594795,1.045127504868238,-6.156916458551014,0.23041637676957075,-6.519929502757557,0.001455990509561455,-3.1623590811647886,0.015935313860466344,-6.132621574595006,0.2143728093663723,-5.538390159170493,0.9766186752398951,-9.890972308662684,1.0451274768626917,-6.156917810108734,0.2079195810728662,3.6447798221527226,0.018328402431519415,-6.547053474464309,0.001567902327731921,-6.133456479378923,0.2381172219440752,-5.538335392755662,0.9766294416003324,-6.7466321186128635,0.0018036162379261626,-3.1664621110084683,0.01610719302992608,1.536734693877551,0.650730411686587
3.614734786372669,0.022640985928787175,-7.082894757362446,0.001571503581871172,-10.295721493597995,1.0443274772855684,-6.495318753051145,0.231482370902663,-7.054605858127636,0.00161385148590195,-3.163330696419899,0.016164523444198473,-6.471068072264863,0.2154192675163278,-5.8098394483077564,0.976380825327544,-10.295721467182652,1.0443274581965112,-6.495320404026139,0.20894729565691217,3.614730438436442,0.02264069878933965,-7.081840417392744,0.001737691766509829,-6.47194456225392,0.2391895411253957,-5.809785190114207,0.9763909174136288,-7.284916671079902,0.0019633131632182037,-3.165512341334054,0.016414125731273193,1.5387755102040817,0.649867374005305
3.4977378540933413,0.02676868984696867,-7.616873848525876,0.001697953770332258,-10.699271336334373,1.0435466186260458,-6.8325076668195805,0.23251250139786422,-7.588345583161588,0.0017454856178754786,-3.181357610712503,0.016477714883193904,-6.808323287394358,0.21643371766344008,-6.08056946083893,0.9761486940410374,-10.699271311232948,1.0435466432204004,-6.832509635104969,0.20994302803830375,3.4977417663701926,0.02676839412468006,-7.615556362681238,0.001879200161104159,-6.809237808649798,0.24022852422542432,-6.080514948864319,0.976158017707699,-7.824371429668171,0.00208809425492094,-3.185974701535499,0.0168406543962674,1.5408163265306123,0.6490066225165563
3.3324326408168363,0.02972811853800387,-8.150278670811774,0.0017963055880260642,-11.101643082170366,1.0428468094611896,-7.168418223392163,0.2335489226596318,-8.121192830043622,0.001847975231585424,-3.217884554528026,0.016694262645207382,-7.144321575431644,0.21745212716940354,-6.35058697388804,0.9759159292156233,-11.10164309970342,1.0428468420802628,-7.168420630006348,0.21094480918840133,3.332441615331765,0.02972793950677718,-8.14830553995334,0.0019893034613560996,-7.145278441365628,0.24127378572962868,-6.350531382532576,0.9759248655122561,-8.36451956401049,0.0021757585759625514,-3.229621405232589,0.017158927147937843,1.542857142857143,0.6481481481481481
3.145921753904259,0.03089690490526835,-8.682945433030858,0.0018651507919899345,-11.502892696539151,1.0422703815345475,-7.503101582430404,0.23463847436923777,-8.653066390641328,0.0019195168184720517,-3.268969779037689,0.016644466888659004,-7.479103117418909,0.2185154780001756,-6.619894578667077,0.9756746673352077,-11.502892731391837,1.0422703720679796,-7.503104635283887,0.21199493935896088,3.1459321921083236,0.030896914414848917,-8.68008192378366,0.0020661433276892897,-7.480111532489274,0.2423693306217487,-6.61983727487233,0.9756840800009039,-8.90498228136201,0.002225051971681349,-3.2918059010488667,0.017156543459418333,1.5448979591836736,0.6472919418758256
2.9593225472853866,0.030021467867310185,-9.214710686943864,0.0019037306995872748,-11.903092840925611,1.0418189125884911,-7.836716330136186,0.23581573607500572,-9.18389659401397,0.00195907493666152,-3.327082836317882,0.016210000821892324,-7.81280946206226,0.2196554557065977,-6.888490359701681,0.9754181940717622,-11.903092840787158,1.0418188762733187,-7.836720276718903,0.2131246825530894,2.959331103083622,0.0300216574289726,-9.210882045541688,0.002108725570084874,-7.813878412922308,0.2435484324259426,-6.888431164114926,0.975429323895968,-9.44549984259907,0.0022353255195647704,-3.3640995619698297,0.016683484407619138,1.5469387755102042,0.646437994722955
2.795003851561085,0.02724335126047469,-9.745516299450273,0.0019115432988860545,-12.30230424027725,1.0414490030781178,-8.16947686808603,0.23709008561505956,-9.713748455186021,0.001966029974709622,-3.3820176982417047,0.015346951825011638,-8.145640041061796,0.22088292258723066,-7.156369293079734,0.9751433134781798,-12.302304208396528,1.0414489955510833,-8.169481936219546,0.2143425569771579,2.7950075733893995,0.02724365066532063,-9.740797020008564,0.00211651902058989,-8.146773799866816,0.24482176566026112,-7.156308693198029,0.9751575344173533,-9.986013978664865,0.002206380176403615,-3.435345881553518,0.015675443350247738,1.5489795918367348,0.6455862977602107
2.6849803284901688,0.02314898185008885,-10.275481038651062,0.0018881385304802493,-12.700549962464551,1.0410890502716343,-8.501579438668356,0.23844225479090772,-10.242903811660351,0.001939969505075406,-3.4205280729333083,0.014099941999392995,-8.477786199738183,0.22218386806431903,-7.423525832502227,0.9748514499838067,-12.700549950505456,1.0410890791566356,-8.501585793506342,0.21563119141234413,2.684975940798747,0.0231492826739539,-10.270070211534042,0.002089222132164416,-8.47898270604346,0.24617350024249107,-7.423465053072865,0.9748699019727307,-10.526784533738045,0.002138548287493267,-3.4906151235298384,0.014167838895762893,1.5510204081632653,0.6447368421052632
2.6786218227462015,0.018880769101337815,-10.804941665767519,0.0018332003834560275,-13.097805710156594,1.0406703389317706,-8.83313652063018,0.23983182275692533,-10.771900629164465,0.0018807438123050204,-3.4252554032720877,0.012616456812478655,-8.809368984510744,0.2235244644564431,-7.689956643723516,0.9745480461509348,-13.097805734548057,1.0406703541519384,-8.83314424185313,0.21695406680607765,2.6786066789291585,0.01888091954928892,-10.799126108898463,0.002026808950873006,-8.810621626359735,0.2475668688073225,-7.689897489377586,0.9745712367204397,-11.068531131351952,0.0020329878388894536,-3.508115155649679,0.012315188040396502,1.5530612244897959,0.6438896189224704
2.8139893531219213,0.016204750351729556,-11.334484724783405,0.0017469088345134164,-13.494011708318633,1.0401581133689082,-9.164146034605144,0.24121236275535618,-11.301555690848692,0.001788812157820237,-3.375606458121588,0.011165360285052979,-9.14040479035826,0.22486310646562158,-7.955662405427837,0.9742405467658475,-13.49401172531239,1.040158089826435,-9.16415511120685,0.21826919596390557,2.8139709040626983,0.01620461356170638,-11.32859306267895,0.0019298598226772247,-9.1417061503663,0.2489569273651435,-7.95560686720585,0.9742680681580156,-11.612611468378699,0.0018921020283612405,-3.455866019252551,0.010431466132303533,1.5551020408163265,0.6430446194225722
2.997642264532043,0.016535766136649522,-11.86500352800946,0.0016304639016990557,-13.889101267789778,1.03956787808401,-9.494505476594076,0.24254782705281172,-11.83301807526547,0.001665778338556986,-3.25890426107794,0.010134461616317408,-9.470810392236203,0.2261645771627816,-8.220648028119717,0.9739358361536035,-13.889101246157235,1.0395678564564446,-9.494515834266583,0.21954394802497212,2.9976387483582236,0.016535440285825913,-11.859354586142553,0.0018000631349961854,-9.47215554203055,0.2503055100791701,-8.22059774988413,0.9739663326218035,-12.161276463690704,0.001719964587983029,-3.30208962069288,0.009041274165334406,1.5571428571428572,0.6422018348623854
