s11a,s11m,s13a,s13m,s14a,s14m,s12a,s12m,s31a,s31m,s33a,s33m,s34a,s34m,s32a,s32m,s41a,s41m,s43a,s43m,s44a,s44m,s42a,s42m,s21a,s21m,s23a,s23m,s24a,s24m,s22a,s22m,wavelengths,freqs
-0.5768229132561724,0.07415915880170404,-2.0023616927164354,0.5010854892122008,3.1005513013934007,0.04030598084208967,3.100551301428025,0.04030598083920634,-2.005243240403164,0.50138655468968,-1.338335319696532,0.061370788511247734,3.0642864976403366,0.04090158628088142,3.0642864976402198,0.04090158628097946,3.10013849203161,0.04023275223473985,3.0627908470347442,0.04097106616945283,-1.3399897511317453,0.06129622205792699,-1.9984882874720675,0.5018162497918134,3.1001384920434356,0.04023275222523444,3.062790847039839,0.0409710661599099,-1.99848828747377,0.5018162497960034,-1.3399897511304169,0.06129622205789632,1.5,0.6666666666666666
-1.050958432714447,0.0907632312281707,-2.161366003985141,0.4965082934886819,2.872018775227483,0.039838800813177144,2.8720187752694706,0.03983880081038369,-2.1635423018039113,0.4967754127926852,-1.6587508651339935,0.08076562477017579,2.8348301873678206,0.04024401741324008,2.8348301873678157,0.04024401741324021,2.872384454069667,0.03975826690977953,2.833328150022212,0.04030845571554986,-1.6597948188294387,0.08069134477376698,-2.1575998240656564,0.49797792006991765,2.8723844541055557,0.03975826690054207,2.8333281500509844,0.040308455706259454,-2.157599824066375,0.4979779200715842,-1.6597948188288234,0.08069134477371508,1.5020408163265306,0.6657608695652174
-1.4383057484363773,0.11068370142764705,-2.3194866775207923,0.492369904008489,2.645812009451552,0.03897388090848382,2.645812009500169,0.038973880905827374,-2.3209705904147753,0.4927319498535474,-1.9332756678177774,0.09979782510173191,2.608513595739828,0.03921799123864096,2.6085135957397276,0.0392179912385667,2.646992286308412,0.038896694022235515,2.6070675859053427,0.03927576826091605,-1.9338939034813605,0.09972338507737753,-2.316250507271984,0.49451635865463733,2.6469922863670443,0.03889669401336898,2.6070675859567602,0.039275768251984415,-2.3162505072713975,0.49451635865411153,-1.9338939034780014,0.09972338507742683,1.5040816326530613,0.6648575305291723
-1.7701102065957963,0.13163538332300134,-2.476959786213961,0.48841378613699515,2.42707548468689,0.03772433408252895,2.427075484743397,0.03772433408028054,-2.4778513165156175,0.48898768173591245,-2.184301908594917,0.11776028061309998,2.389882526875326,0.03785258483444717,2.3898825268755965,0.03785258483453314,2.4290543077313944,0.03766095810696677,2.3885845863833204,0.03790363401274112,-2.184626127918381,0.11769028741729573,-2.474603245601199,0.4911433069518632,2.4290543078116857,0.037660958098580756,2.388584586456373,0.03790363400427914,-2.4746032456032308,0.4911433069560375,-2.1846261279178156,0.11769028741725433,1.506122448979592,0.6639566395663956
-2.0683386247901985,0.15224784006162445,-2.6335447993685266,0.484395657236942,2.2216250983672032,0.03623424079486388,2.2216250984310006,0.036234240792878236,-2.634017964524915,0.48527454205624687,-2.422502613824021,0.13420207524066907,2.1838852624874603,0.036288093956538564,2.1838852624879075,0.036288093956619256,2.2242885831531183,0.03619387169855677,2.1828032644155573,0.03633453793952289,-2.4226214420244006,0.1341390123391539,-2.632383862371875,0.4875960500092433,2.224288583255957,0.03619387169074345,2.1828032645110174,0.03633453793161905,-2.6323838623743314,0.48759605001349615,-2.422621442025639,0.1341390123390993,1.5081632653061225,0.6630581867388362
-2.346552667839754,0.17165102739772334,-2.7886116141010597,0.48025984115913534,2.033747696161216,0.0347708928170959,2.033747696231127,0.03477089281532498,-2.788898803665243,0.4815053700001661,-2.653882183312791,0.14879024617394504,1.9940043926624293,0.03476219296043503,1.9940043926624267,0.03476219296043517,2.0368894269978015,0.03475881446561984,1.99315885836986,0.03480631909691615,-2.6538145138885665,0.1487378360873151,-2.78896136826445,0.48379077448609953,2.0368894271243083,0.034758814458481516,1.9931588584887208,0.03480631908966315,-2.7889613682656234,0.48379077448784336,-2.653814513889524,0.14873783608727573,1.510204081632653,0.6621621621621622
-2.6133036076010288,0.1892519387844612,-2.9415189559176986,0.4762494827853672,1.8635218793034811,0.03365766372482077,1.8635218793783082,0.03365766372333598,-2.9418963272864906,0.47788632734627107,-2.8822448506578633,0.16126742600927368,1.8201588447538288,0.03354925468787262,1.820158844753361,0.03354925468783093,1.866899752980233,0.03367606572742674,1.8195564157682793,0.03359291378864906,-2.8820057123437373,0.1612401309547313,-2.9436936486119016,0.47991493300186977,1.8668997531286744,0.033676065721073956,1.8195564159090425,0.033592913782145704,-2.9436936486122995,0.4799149330022245,-2.8820057123444376,0.16124013095469336,1.5122448979591836,0.6612685560053981
-2.8745045646769554,0.20461476036662593,-3.0921344891576976,0.47283491448021986,1.7050317795936283,0.033173299097359714,1.7050317796727,0.03317329909631531,-3.0929033419088374,0.4748444912709831,-3.110378931078698,0.1714543243036748,1.657460921766925,0.03287932371327206,1.6574609217675254,0.03287932371331851,1.7083596776410566,0.03322341286429944,1.657097571949839,0.03292458955254397,-3.110058638151957,0.17147043857141936,-3.0963548267133114,0.47635038009787384,1.7083596778052148,0.0332234128587882,1.6570975721071617,0.03292458954684186,-3.096354826715551,0.4763503801011192,-3.1100586381524056,0.17147043857137226,1.5142857142857142,0.6603773584905661
-3.134630810879673,0.21733639854796102,-3.2410945677226004,0.47045276200177116,1.5471515221642376,0.03345515183271403,1.5471515222415957,0.03345515183190983,-3.242546015605516,0.4727665418647477,-3.3407444416547887,0.17922119069278128,1.496867901692497,0.03286787061992642,1.4968679016924917,0.03286787061992667,1.5501002855593786,0.033536526832664844,1.4967216434693449,0.032916775001447685,-3.34047481190496,0.1792876089998961,-3.2473037653202415,0.473465792705166,1.550100285729458,0.03353652682793763,1.4967216436346122,0.032916774996501384,-3.24730376532159,0.4734657927068959,-3.340474811905178,0.17928760899983182,1.5163265306122449,0.6594885598923285
-3.396909595749688,0.2269728036932159,-3.3895123377761567,0.46926192068997447,1.377547138667424,0.03444171575352267,1.3775471387410212,0.034441715752927336,-3.391872858565199,0.47176206790665765,-3.5755706504132085,0.18443054293145697,1.3280405185157842,0.03347665094637661,1.3280405185157769,0.03347665094637673,1.3798174295695504,0.03455094513845318,1.3280761628824103,0.03353105101459955,-3.575460332673157,0.18454216574425472,-3.3972801917015074,0.47144902421285195,1.3798174297364743,0.034550945134318695,1.3280761630472444,0.03353105101024562,-3.3972801917024076,0.4714490242143933,-3.575460332672287,0.18454216574425086,1.5183673469387755,0.6586021505376344
-3.6632131248567377,0.23313027390152644,-3.5384479803181885,0.46912866593976343,1.1876791879767505,0.03588540750257769,1.1876791880453363,0.03588540750208916,-3.541828480908693,0.4716633228883741,-3.8165504072502694,0.1869461381198556,1.1430848698144527,0.03452081536054872,1.1430848698144356,0.034520815360548476,1.1890643702164236,0.03601500906299337,1.1432500365992895,0.034581741004465254,-3.816686120121956,0.18709089779747232,-3.5470809064980684,0.47028649255978394,1.1890643703732804,0.03601500905923068,1.1432500367566072,0.034581741000512145,-3.547080906499301,0.4702864925613943,-3.816686120121513,0.18709089779742885,1.5204081632653061,0.6577181208053691
-3.9343247572991995,0.23566109498862256,-3.6886721376607245,0.46975810702720155,0.9753604836245435,0.03743366430524999,0.9753604836882898,0.03743366430478089,-3.6930470563601308,0.4721671880816027,-4.064674637048885,0.1867366099429986,0.9389452333439547,0.03572302132425126,0.9389452333439764,0.0357230213242536,0.9758057267799081,0.037571633139886505,0.939204391686166,0.03578993878255909,-4.065118235907304,0.18689362760056447,-3.6973916989272064,0.46982306503470045,0.9758057269247105,0.037571633136262696,0.9392043918332911,0.03578993877879396,-3.697391698928577,0.46982306503636845,-4.065118235906841,0.18689362760052072,1.5224489795918368,0.6568364611260054
-4.210515909453856,0.23479457206068463,-3.8406883796408393,0.4707563477880995,0.7440351408433293,0.03874424999898495,0.7440351409025874,0.0387442499984315,-3.845908347351669,0.47289697411814025,-4.320423601221954,0.18398880572352,0.7174742080231306,0.03679951231489743,0.7174742080228221,0.03679951231487365,0.743649979972285,0.038877209300071505,0.7178230523201168,0.03687181839767635,-4.321169315521046,0.18413326978086977,-3.848741979599702,0.46979139801999553,0.7436499801052232,0.03887720929642064,0.7178230524565005,0.036871818393939625,-3.848741979600515,0.4697913980209471,-4.321169315520578,0.18413326978082628,1.5244897959183674,0.6559571619812583
-4.492043718375221,0.23113624225584276,-3.994648496746004,0.4716294930306383,0.5002248606200194,0.0395949630328906,0.5002248606767198,0.03959496303230469,-4.000473828420155,0.4733947984741491,-4.584102022851946,0.17915405919334637,0.4836768023831211,0.0375529340068849,0.48367680238341776,0.03755293400690916,0.49920254300169764,0.03971176467653422,0.48408333951835153,0.03763053050322312,-4.585081125332511,0.1792708569141045,-4.001398602908986,0.46981630061720636,0.4992025431236429,0.039711764672767005,0.48408333964429523,0.03763053049942054,-4.001398602911285,0.4698163006195321,-4.58508112533212,0.17927085691389552,1.526530612244898,0.6550802139037433
-4.779404588637992,0.22557022361719006,-4.150176485478188,0.47186657930243364,0.25050444633104996,0.03994120095540242,0.25050444638483416,0.039941200954671546,-4.156318994613061,0.47319665990172255,-4.856085774043555,0.17291652556029974,0.24304135733961013,0.037928659270804695,0.2430413573396054,0.037928659270804854,0.24907098111952586,0.0400333260332951,0.2434393781953872,0.038009694536732676,-4.857225823860981,0.17300308176829435,-4.15520362280857,0.46947621518812227,0.2490709812323253,0.04003332602934458,0.24343937831236287,0.038009694532787824,-4.1552036228098075,0.46947621518959237,-4.857225823860343,0.17300308176844076,1.5285714285714287,0.6542056074766355
-5.073302957837242,0.21911012719535397,-4.3063911935162125,0.4711037509560311,-0.0010277224748984454,0.039883405171375855,-0.0010277224232749908,0.03988340517052495,-4.3125542882159245,0.47198855363903375,-5.1368362218037245,0.16610399509509058,-0.0009470017107968313,0.03799395393493386,-0.0009470017107592103,0.037993953934937014,-0.0025867573154448277,0.03994591945820667,-0.0005833340385326517,0.03807491229983256,-5.138077915774487,0.1661622752572226,-4.309536645411512,0.4684341013150746,-0.002586757211929365,0.03994591945408469,-0.0005833339309338222,0.03807491229574333,-4.309536645413133,0.4684341013167146,-5.138077915774018,0.1661622752571714,1.530612244897959,0.6533333333333333
-5.37428544312985,0.21275105526587101,-4.462170505740218,0.46923922468424173,-0.2537923716338757,0.03955925157627657,-0.253792371584474,0.03955925157529064,-4.468080818020286,0.4697144469828257,-5.4265781351558395,0.15957790634220984,-0.24792102011655448,0.03784802591063629,-0.24792102011656292,0.0378480259106363,-0.25516184758686355,0.039593384132651926,-0.24757524000718742,0.03792679355176028,-5.4278485977015,0.15961292340623312,-4.4634858922985385,0.4665576695960599,-0.25516184749251164,0.03959338412834761,-0.24757523990902827,0.03792679354750376,-4.463485892300106,0.46655766959759076,-5.427848597701057,0.159612923406174,1.5326530612244897,0.6524633821571239
-5.682187960213873,0.20736659823957185,-4.6164637670550865,0.46644252113432116,-0.5097068629923225,0.03903382878933187,-0.5097068629440534,0.03903382878828929,-4.621893505777933,0.46658093910397097,-5.724740271168224,0.154136721695481,-0.49973253786001626,0.03752594502954477,-0.4997325378589435,0.03752594502960756,-0.5106379945585459,0.03904578529741435,-0.49941781838152927,0.03760159895816961,-5.7259673786022764,0.15415973485547027,-4.616130546093144,0.46396091968396874,-0.5106379944739209,0.039045785292915546,-0.49941781829351023,0.03760159895372389,-4.61613054609693,0.46396091968763853,-5.725967378600997,0.15415973485563203,1.5346938775510204,0.6515957446808511
-5.9957290920270125,0.2036350403479569,-4.768545933010264,0.4630954554715069,-0.7707525371676263,0.038263364859152396,-0.7707525371233229,0.03826336485787432,-4.773328246309839,0.46299596860697273,-6.029491622420543,0.15042845165495305,-0.7581574605545186,0.036965522887268266,-0.7581574605545212,0.036965522887268475,-0.7710683460134962,0.03826056046887874,-0.7579022017474751,0.03703566814072918,-6.030645499486582,0.15045248667534117,-4.76681495752696,0.4609658234364626,-0.7710683459404166,0.03826056046419508,-0.7579022016715036,0.0370356681360954,-4.766814957528648,0.46096582343797327,-6.030645499486254,0.15045248667526842,1.536734693877551,0.650730411686587
-6.3124427004140635,0.2019592247352678,-4.918223754293757,0.4596842500735367,-1.0368451462535924,0.037149005095200194,-1.0368451462120958,0.03714900509377869,-4.922262976916308,0.45946042924159686,-6.337652972605897,0.14885490748855149,-1.022864699522638,0.036056729289519154,-1.022864699522364,0.03605672928953167,-1.0363871540872183,0.03714006675087442,-1.0226479010083656,0.03611851294969255,-6.338737755766169,0.14888726150793974,-4.9153656307358835,0.4580030850064269,-1.0363871540272331,0.03714006674600886,-1.0226479009460432,0.03611851294486831,-4.9153656307385605,0.45800308500855386,-6.338737755767549,0.1488872615076804,1.5387755102040817,0.649867374005305
-6.6289423503270415,0.20240102309999947,-5.065922223084525,0.4566347714297461,-1.3053794496978337,0.03562910838361703,-1.3053794496602331,0.03562910838201469,-5.069199960586876,0.4564040901894072,-6.645049412217076,0.14949380225865574,-1.291010528196193,0.034729276105108876,-1.2910105281961959,0.03472927610510916,-1.304049813598665,0.03562513931692063,-1.2907914158802942,0.034781971621043364,-6.646064661172257,0.14953628261081917,-5.062186519415598,0.45546091257577453,-1.3040498135531184,0.035625139311881646,-1.2907914158329985,0.03478197161603421,-5.062186519417593,0.455460912577293,-6.646064661173399,0.14953628261064403,1.5408163265306123,0.6490066225165563
-6.94146806287222,0.20468342089836064,-5.2125075258428275,0.4541451121230875,-1.5724064748784412,0.03373713143379757,-1.5724064748448703,0.03373713143203442,-5.2150842941944475,0.4540189805281259,-6.94722416539139,0.15209283240427132,-1.5584337557526866,0.03300905586962485,-1.5584337557526868,0.03300905586962517,-1.5702447883844157,0.033748720686436806,-1.55821559939116,0.0330531580705552,-6.9481636038504835,0.15214652688457184,-5.208121668475342,0.45352463540280774,-1.5702447883553543,0.033748720681251926,-1.5582155993609765,0.03305315806538749,-5.208121668477495,0.4535246354043243,-6.948163603852584,0.15214652688439972,1.542857142857143,0.6481481481481481
-7.246582003522438,0.2082735213108686,-5.358884223147636,0.4521235009930497,-1.8343214645139287,0.03159089678211708,-1.8343214644846637,0.03159089678020557,-5.360894901849085,0.452197425033892,-7.240286427279167,0.1561526260859588,-1.8213439809000638,0.031008551819070123,-1.8213439808998773,0.03100855181907506,-1.831476802761823,0.03162431639398718,-1.821152196678038,0.031043888353305692,-7.241161804889531,0.15621853694631344,-5.354086517093914,0.4520980752522172,-1.831476802750767,0.031624316388664475,-1.8211521966665358,0.031043888347988373,-5.354086517096148,0.4520980752539624,-7.241161804887355,0.15621853694623614,1.5448979591836736,0.6472919418758256
-7.541752737314638,0.21250963563982733,-5.505626753705527,0.4502639310992046,-2.0889433621966877,0.02933818694481743,-2.088943362172312,0.029338186942754318,-5.507267754179705,0.4506076807868382,-7.521555735797808,0.16105855593135054,-2.077401848982932,0.028873687599713364,-2.0774018489826216,0.028873687599719786,-2.085600298403492,0.029395708523987943,-2.077235077040217,0.02890020109101723,-7.52239491311062,0.16113485327792107,-5.500679252110955,0.45086023882286475,-2.0856002984134885,0.029395708518541154,-2.0772350770505215,0.02890020108556507,-5.500679252113905,0.45086023882491194,-7.522394913110779,0.16113485327781968,1.5469387755102042,0.646437994722955
-7.825627756951287,0.21672269040329445,-5.652830267513368,0.44817910747159173,-2.3356511212512383,0.027106801162691537,-2.3356511212339655,0.02710680116042328,-5.654338134933746,0.44882834067567734,-7.789789499889581,0.16620303325283944,-2.3258606291345503,0.026733563291482042,-2.325860629135461,0.026733563291468854,-2.332028071435572,0.027188506240992647,-2.3257118144341646,0.026752414944809275,-7.790613851256941,0.16628516663964968,-5.648000211967871,0.4494029639118324,-2.3320280714689265,0.027188506235398566,-2.3257118144686824,0.026752414939200195,-5.6480002119672035,0.44940296391128376,-7.7906138512593435,0.16628516663964035,1.5489795918367348,0.6455862977602107
-8.097996415562276,0.22031831006122088,-5.8001306173806375,0.44550914932104896,-2.574971117050413,0.024983114618766393,-2.5749711170385385,0.02498311461633422,-5.801754747354419,0.4464607016085432,-8.045046548960755,0.17106145304086093,-2.567150120099845,0.02467764973197912,-2.567150120100572,0.024677649731971698,-2.571340576924566,0.02508680244317839,-2.567044480161827,0.024690314922737967,-8.04586655937645,0.17114546126271993,-5.79568459439416,0.44735051109130797,-2.5713405769827937,0.025086802437387232,-2.56704448022218,0.02469031491692276,-5.795684594393637,0.4473505110909679,-8.045866559376828,0.17114546126262037,1.5510204081632653,0.6447368421052632
-8.359574022798615,0.22280933058375307,-5.946772184924457,0.4419964463220911,-2.8080811975220135,0.023012802483755136,-2.8080811975151536,0.023012802481144314,-5.948745993473697,0.4432088319822299,-8.288378968482082,0.17521395794000252,-2.802371218289022,0.022755373620957697,-2.8023712182895686,0.022755373620954266,-2.8047244806741287,0.023133782725211955,-2.8023506327706085,0.02276272842563046,-8.289211318035793,0.17529754872927839,-5.942992360315241,0.44442906865371984,-2.8047244807584906,0.023133782719169396,-2.8023506328581416,0.022762728419554488,-5.942992360315113,0.44442906865363957,-8.289211318036148,0.17529754872917272,1.5530612244897959,0.6438896189224704
-8.611727196169435,0.22380564073668427,-6.091690253698728,0.4375517839373605,-3.0364035957747904,0.021210743123447968,-3.0364035957702873,0.02121074312068127,-6.094204952332296,0.4389512471972965,-8.521487037446281,0.17832314143419295,-3.0328848484859368,0.020985318936267632,-3.032884848485311,0.020985318936270154,-3.0335478782149172,0.02134310547642319,-3.0329858109542704,0.020987940358977115,-8.522361644839108,0.17840274923020727,-6.0888811673630485,0.44052514964979494,-3.033547878324701,0.0213431054700715,-3.0329858110683037,0.02098794035258197,-6.088881167368216,0.4405251496529198,-8.522361644837778,0.1784027492298839,1.5551020408163265,0.6430446194225722
-8.856178083279248,0.22297988094126764,-6.233658815404182,0.4323179369543486,-3.261335235971594,0.019572470074299866,-3.2613352359702836,0.019572470071322436,-6.236842856697341,0.43380914653896224,-8.746353902612025,0.1800906502557726,-3.2600370123740703,0.019366275993402658,-3.260037012374022,0.01936627599340312,-3.2591308083087744,0.019710446858290355,-3.2602948531019083,0.019364653524425474,-8.747298861619562,0.18015923030080316,-6.232140082238994,0.435752496743724,-3.259130808441864,0.019710446851596553,-3.260294853240264,0.019364653517677605,-6.232140082241582,0.4357524967451796,-8.747298861620013,0.1801592303006917,1.5571428571428572,0.6422018348623854
