s11a,s11m,s31a,s31m,s41a,s41m,s21a,s21m,s22m,s22a,s33m,s33a,s44m,s44a,s12m,s12a,s34m,s34a,s43m,s43a,s13m,s13a,s24m,s24a,s42m,s42a,s14m,s14a,s23m,s23a,s32m,s32a,wavelengths,freqs
1.1048931507766158,0.036718032231545905,-1.5367513031831443,0.3899465230508341,-2.6021358528608514,0.024869414197835202,-2.6021840008211456,0.032239114034135645,0.036718032231545905,1.1048931507766158,0.036718032231545905,1.1048931507766158,0.036718032231545905,1.1048931507766158,0.032239114034135645,-2.6021840008211456,0.032239114034135645,-2.6021840008211456,0.032239114034135645,-2.6021840008211456,0.3899465230508341,-1.5367513031831443,0.3899465230508341,-1.5367513031831443,0.3899465230508341,-1.5367513031831443,0.024869414197835202,-2.6021358528608514,0.024869414197835202,-2.6021358528608514,0.024869414197835202,-2.6021358528608514,1.5,0.6666666666666666
0.36565695299354556,0.030611128961224723,-1.7002576957392321,0.3849828653524284,-2.8180947953338853,0.02496402739895441,-2.81815094703114,0.032332835487624174,0.030611128961224723,0.36565695299354556,0.030611128961224723,0.36565695299354556,0.030611128961224723,0.36565695299354556,0.032332835487624174,-2.81815094703114,0.032332835487624174,-2.81815094703114,0.032332835487624174,-2.81815094703114,0.3849828653524284,-1.7002576957392321,0.3849828653524284,-1.7002576957392321,0.3849828653524284,-1.7002576957392321,0.02496402739895441,-2.8180947953338853,0.02496402739895441,-2.8180947953338853,0.02496402739895441,-2.8180947953338853,1.5020408163265306,0.6657608695652174
-0.4307405569203523,0.03529097249597273,-1.8608077499526288,0.3804784926731623,-3.037646925625506,0.025029124228357694,-3.037712196901195,0.03238843974495232,0.03529097249597273,-0.4307405569203523,0.03529097249597273,-0.4307405569203523,0.03529097249597273,-0.4307405569203523,0.03238843974495232,-3.037712196901195,0.03238843974495232,-3.037712196901195,0.03238843974495232,-3.037712196901195,0.3804784926731623,-1.8608077499526288,0.3804784926731623,-1.8608077499526288,0.3804784926731623,-1.8608077499526288,0.025029124228357694,-3.037646925625506,0.025029124228357694,-3.037646925625506,0.025029124228357694,-3.037646925625506,1.5040816326530613,0.6648575305291723
-1.0064820752340071,0.04842312124201671,-2.0192714984408084,0.37657263049261663,-3.2608833748400703,0.024960156757494054,-3.2609613651135674,0.03227082597320672,0.04842312124201671,-1.0064820752340071,0.04842312124201671,-1.0064820752340071,0.04842312124201671,-1.0064820752340071,0.03227082597320672,-3.2609613651135674,0.03227082597320672,-3.2609613651135674,0.03227082597320672,-3.2609613651135674,0.37657263049261663,-2.0192714984408084,0.37657263049261663,-2.0192714984408084,0.37657263049261663,-2.0192714984408084,0.024960156757494054,-3.2608833748400703,0.024960156757494054,-3.2608833748400703,0.024960156757494054,-3.2608833748400703,1.506122448979592,0.6639566395663956
-1.410703938839546,0.06494959214031934,-2.1765484844705942,0.37321261184646304,-3.484953634177793,0.024657623166176444,-3.485049078417712,0.03185185180179686,0.06494959214031934,-1.410703938839546,0.06494959214031934,-1.410703938839546,0.06494959214031934,-1.410703938839546,0.03185185180179686,-3.485049078417712,0.03185185180179686,-3.485049078417712,0.03185185180179686,-3.485049078417712,0.37321261184646304,-2.1765484844705942,0.37321261184646304,-2.1765484844705942,0.37321261184646304,-2.1765484844705942,0.024657623166176444,-3.484953634177793,0.024657623166176444,-3.484953634177793,0.024657623166176444,-3.484953634177793,1.5081632653061225,0.6630581867388362
-1.7306699215480932,0.08229133328736477,-2.3332167659459233,0.3701635557951141,-3.704109367950359,0.024081302616670963,-3.7042272576037534,0.031080297185116495,0.08229133328736477,-1.7306699215480932,0.08229133328736477,-1.7306699215480932,0.08229133328736477,-1.7306699215480932,0.031080297185116495,-3.7042272576037534,0.031080297185116495,-3.7042272576037534,0.031080297185116495,-3.7042272576037534,0.3701635557951141,-2.3332167659459233,0.3701635557951141,-2.3332167659459233,0.3701635557951141,-2.3332167659459233,0.024081302616670963,-3.704109367950359,0.024081302616670963,-3.704109367950359,0.024081302616670963,-3.704109367950359,1.510204081632653,0.6621621621621622
-2.0088947188907453,0.09926327258056541,-2.489203285000222,0.36712906691983327,-3.9110678531986762,0.023297988006177845,-3.9112107034142554,0.030043100669977448,0.09926327258056541,-2.0088947188907453,0.09926327258056541,-2.0088947188907453,0.09926327258056541,-2.0088947188907453,0.030043100669977448,-3.9112107034142554,0.030043100669977448,-3.9112107034142554,0.030043100669977448,-3.9112107034142554,0.36712906691983327,-2.489203285000222,0.36712906691983327,-2.489203285000222,0.36712906691983327,-2.489203285000222,0.023297988006177845,-3.9110678531986762,0.023297988006177845,-3.9110678531986762,0.023297988006177845,-3.9110678531986762,1.5122448979591836,0.6612685560053981
-2.265326601110471,0.11520729381810094,-2.6437206567283242,0.3639619085104683,-4.0999050087698095,0.02249114501481968,-4.1000701415643785,0.028977291866146993,0.11520729381810094,-2.265326601110471,0.11520729381810094,-2.265326601110471,0.11520729381810094,-2.265326601110471,0.028977291866146993,-4.1000701415643785,0.028977291866146993,-4.1000701415643785,0.028977291866146993,-4.1000701415643785,0.3639619085104683,-2.6437206567283242,0.3639619085104683,-2.6437206567283242,0.3639619085104683,-2.6437206567283242,0.02249114501481968,-4.0999050087698095,0.02249114501481968,-4.0999050087698095,0.02249114501481968,-4.0999050087698095,1.5142857142857142,0.6603773584905661
-2.510742522730351,0.12971252288559848,-2.7958108561134347,0.3608794475108778,-4.269949949571146,0.021910414363585654,-4.270128193895911,0.028204360533074326,0.12971252288559848,-2.510742522730351,0.12971252288559848,-2.510742522730351,0.12971252288559848,-2.510742522730351,0.028204360533074326,-4.270128193895911,0.028204360533074326,-4.270128193895911,0.028204360533074326,-4.270128193895911,0.3608794475108778,-2.7958108561134347,0.3608794475108778,-2.7958108561134347,0.3608794475108778,-2.7958108561134347,0.021910414363585654,-4.269949949571146,0.021910414363585654,-4.269949949571146,0.021910414363585654,-4.269949949571146,1.5163265306122449,0.6594885598923285
-2.75249808555787,0.14242006395260573,-2.945414802860603,0.35836671704132866,-4.428325661203577,0.021774467601725946,-4.428502830760003,0.028004981336108136,0.14242006395260573,-2.75249808555787,0.14242006395260573,-2.75249808555787,0.14242006395260573,-2.75249808555787,0.028004981336108136,-4.428502830760003,0.028004981336108136,-4.428502830760003,0.028004981336108136,-4.428502830760003,0.35836671704132866,-2.945414802860603,0.35836671704132866,-2.945414802860603,0.35836671704132866,-2.945414802860603,0.021774467601725946,-4.428325661203577,0.021774467601725946,-4.428325661203577,0.021774467601725946,-4.428325661203577,1.5183673469387755,0.6586021505376344
-2.9957267850740665,0.15279511789381253,-3.0935707666616357,0.35673681599252943,-4.58825652301243,0.022179668889515124,-4.5884203740273275,0.028501758640208322,0.15279511789381253,-2.9957267850740665,0.15279511789381253,-2.9957267850740665,0.15279511789381253,-2.9957267850740665,0.028501758640208322,-4.5884203740273275,0.028501758640208322,-4.5884203740273275,0.028501758640208322,-4.5884203740273275,0.35673681599252943,-3.0935707666616357,0.35673681599252943,-3.0935707666616357,0.35673681599252943,-3.0935707666616357,0.022179668889515124,-4.58825652301243,0.022179668889515124,-4.58825652301243,0.022179668889515124,-4.58825652301243,1.5204081632653061,0.6577181208053691
-3.2427731408725573,0.16020061559171173,-3.241393595938441,0.35596838589317,-4.763321238407714,0.02306083946617769,-4.763467169567257,0.029609388537983294,0.16020061559171173,-3.2427731408725573,0.16020061559171173,-3.2427731408725573,0.16020061559171173,-3.2427731408725573,0.029609388537983294,-4.763467169567257,0.029609388537983294,-4.763467169567257,0.029609388537983294,-4.763467169567257,0.35596838589317,-3.241393595938441,0.35596838589317,-3.241393595938441,0.35596838589317,-3.241393595938441,0.02306083946617769,-4.763321238407714,0.02306083946617769,-4.763321238407714,0.02306083946617769,-4.763321238407714,1.5224489795918368,0.6568364611260054
-3.4940104247233736,0.1642281970023536,-3.3895906017121478,0.3559493794914359,-4.961779657226382,0.024215333511613455,-4.961910638981689,0.031066394277495718,0.1642281970023536,-3.4940104247233736,0.1642281970023536,-3.4940104247233736,0.1642281970023536,-3.4940104247233736,0.031066394277495718,-4.961910638981689,0.031066394277495718,-4.961910638981689,0.031066394277495718,-4.961910638981689,0.3559493794914359,-3.3895906017121478,0.3559493794914359,-3.3895906017121478,0.3559493794914359,-3.3895906017121478,0.024215333511613455,-4.961779657226382,0.024215333511613455,-4.961779657226382,0.024215333511613455,-4.961779657226382,1.5244897959183674,0.6559571619812583
-3.7494927647087235,0.16485065496530574,-3.5388723133215754,0.3565666119643459,-5.184633029779647,0.0253695808666972,-5.184756275715159,0.03252115818018519,0.16485065496530574,-3.7494927647087235,0.16485065496530574,-3.7494927647087235,0.16485065496530574,-3.7494927647087235,0.03252115818018519,-5.184756275715159,0.03252115818018519,-5.184756275715159,0.03252115818018519,-5.184756275715159,0.3565666119643459,-3.5388723133215754,0.3565666119643459,-3.5388723133215754,0.3565666119643459,-3.5388723133215754,0.0253695808666972,-5.184633029779647,0.0253695808666972,-5.184633029779647,0.0253695808666972,-5.184633029779647,1.526530612244898,0.6550802139037433
-4.009680956300995,0.16237038088518002,-3.6900093242848326,0.3575656540403337,-5.426952382635697,0.02626223651756785,-5.427075307068148,0.033638828081582965,0.16237038088518002,-4.009680956300995,0.16237038088518002,-4.009680956300995,0.16237038088518002,-4.009680956300995,0.033638828081582965,-5.427075307068148,0.033638828081582965,-5.427075307068148,0.033638828081582965,-5.427075307068148,0.3575656540403337,-3.6900093242848326,0.3575656540403337,-3.6900093242848326,0.3575656540403337,-3.6900093242848326,0.02626223651756785,-5.426952382635697,0.02626223651756785,-5.426952382635697,0.02626223651756785,-5.426952382635697,1.5285714285714287,0.6542056074766355
-4.275611557873457,0.15736629983516018,-3.8433724800838123,0.3585073398930991,-5.6805264185344075,0.026728609295725972,-5.68065491129104,0.034209348205082195,0.15736629983516018,-4.275611557873457,0.15736629983516018,-4.275611557873457,0.15736629983516018,-4.275611557873457,0.034209348205082195,-5.68065491129104,0.034209348205082195,-5.68065491129104,0.034209348205082195,-5.68065491129104,0.3585073398930991,-3.8433724800838123,0.3585073398930991,-3.8433724800838123,0.3585073398930991,-3.8433724800838123,0.026728609295725972,-5.6805264185344075,0.026728609295725972,-5.6805264185344075,0.026728609295725972,-5.6805264185344075,1.530612244897959,0.6533333333333333
-4.549170084163825,0.15062119592901121,-3.9985600382026045,0.35890199575799153,-5.936999987577307,0.026753696612628237,-5.937138211342908,0.034214769191064205,0.15062119592901121,-4.549170084163825,0.15062119592901121,-4.549170084163825,0.15062119592901121,-4.549170084163825,0.034214769191064205,-5.937138211342908,0.034214769191064205,-5.937138211342908,0.034214769191064205,-5.937138211342908,0.35890199575799153,-3.9985600382026045,0.35890199575799153,-3.9985600382026045,0.35890199575799153,-3.9985600382026045,0.026753696612628237,-5.936999987577307,0.026753696612628237,-5.936999987577307,0.026753696612628237,-5.936999987577307,1.5326530612244897,0.6524633821571239
-4.833076357694987,0.14300624684315358,-4.154459889587814,0.35841862126564,-6.190843886692023,0.026452827353403163,-6.190994166716842,0.03380376383014909,0.14300624684315358,-4.833076357694987,0.14300624684315358,-4.833076357694987,0.14300624684315358,-4.833076357694987,0.03380376383014909,-6.190994166716842,0.03380376383014909,-6.190994166716842,0.03380376383014909,-6.190994166716842,0.35841862126564,-4.154459889587814,0.35841862126564,-4.154459889587814,0.35841862126564,-4.154459889587814,0.026452827353403163,-6.190843886692023,0.026452827353403163,-6.190843886692023,0.026452827353403163,-6.190843886692023,1.5346938775510204,0.6515957446808511
-5.130285578842539,0.13539573575507097,-4.309718493830511,0.3570042656445168,-6.440989401678027,0.025984745098932827,-6.441152922815271,0.033179995329476485,0.13539573575507097,-5.130285578842539,0.13539573575507097,-5.130285578842539,0.13539573575507097,-5.130285578842539,0.033179995329476485,-6.441152922815271,0.033179995329476485,-6.441152922815271,0.033179995329476485,-6.441152922815271,0.3570042656445168,-4.309718493830511,0.3570042656445168,-4.309718493830511,0.3570042656445168,-4.309718493830511,0.025984745098932827,-6.440989401678027,0.025984745098932827,-6.440989401678027,0.025984745098932827,-6.440989401678027,1.536734693877551,0.650730411686587
-5.442883315940845,0.1286290199570173,-4.463190582307968,0.35484527837236013,-6.690184970165243,0.025455129838929003,-6.690362273354615,0.03247878015334157,0.1286290199570173,-5.442883315940845,0.1286290199570173,-5.442883315940845,0.1286290199570173,-5.442883315940845,0.03247878015334157,-6.690362273354615,0.03247878015334157,-6.690362273354615,0.03247878015334157,-6.690362273354615,0.35484527837236013,-4.463190582307968,0.35484527837236013,-4.463190582307968,0.35484527837236013,-4.463190582307968,0.025455129838929003,-6.690184970165243,0.025455129838929003,-6.690184970165243,0.025455129838929003,-6.690184970165243,1.5387755102040817,0.649867374005305
-5.770703781190324,0.12347818517220864,-4.614147845945305,0.3522767710569846,-6.942393627694683,0.024871739528675562,-6.942584584442158,0.03171017256794481,0.12347818517220864,-5.770703781190324,0.12347818517220864,-5.770703781190324,0.12347818517220864,-5.770703781190324,0.03171017256794481,-6.942584584442158,0.03171017256794481,-6.942584584442158,0.03171017256794481,-6.942584584442158,0.3522767710569846,-4.614147845945305,0.3522767710569846,-4.614147845945305,0.3522767710569846,-4.614147845945305,0.024871739528675562,-6.942393627694683,0.024871739528675562,-6.942393627694683,0.024871739528675562,-6.942393627694683,1.5408163265306123,0.6490066225165563
-6.110248532918973,0.12056382468788637,-4.762401388856554,0.3496992499157104,-7.199943307891716,0.02416857454788178,-7.200147452213852,0.030790227231627092,0.12056382468788637,-6.110248532918973,0.12056382468788637,-6.110248532918973,0.12056382468788637,-6.110248532918973,0.030790227231627092,-7.200147452213852,0.030790227231627092,-7.200147452213852,0.030790227231627092,-7.200147452213852,0.3496992499157104,-4.762401388856554,0.3496992499157104,-4.762401388856554,0.3496992499157104,-4.762401388856554,0.02416857454788178,-7.199943307891716,0.02416857454788178,-7.199943307891716,0.02416857454788178,-7.199943307891716,1.542857142857143,0.6481481481481481
-6.454678275730626,0.1202133211435889,-4.9083713563253,0.34747577138324204,-7.462166553404419,0.023269948217936046,-7.4623828557864575,0.029622909778832304,0.1202133211435889,-6.454678275730626,0.1202133211435889,-6.454678275730626,0.1202133211435889,-6.454678275730626,0.029622909778832304,-7.4623828557864575,0.029622909778832304,-7.4623828557864575,0.029622909778832304,-7.4623828557864575,0.34747577138324204,-4.9083713563253,0.34747577138324204,-4.9083713563253,0.34747577138324204,-4.9083713563253,0.023269948217936046,-7.462166553404419,0.023269948217936046,-7.462166553404419,0.023269948217936046,-7.462166553404419,1.5448979591836736,0.6472919418758256
-6.795404390948521,0.12235254316117258,-5.052985347362698,0.3458154430506408,-7.725993851258215,0.022147765592827596,-7.72622041648067,0.028173026478321234,0.12235254316117258,-6.795404390948521,0.12235254316117258,-6.795404390948521,0.12235254316117258,-6.795404390948521,0.028173026478321234,-7.72622041648067,0.028173026478321234,-7.72622041648067,0.028173026478321234,-7.72622041648067,0.3458154430506408,-5.052985347362698,0.3458154430506408,-5.052985347362698,0.3458154430506408,-5.052985347362698,0.022147765592827596,-7.725993851258215,0.022147765592827596,-7.725993851258215,0.022147765592827596,-7.725993851258215,1.5469387755102042,0.646437994722955
-7.124693409965945,0.12652017372919996,-5.197341316194842,0.3446965428831902,-7.987664506896785,0.02083793490190488,-7.987898906806342,0.026486847066801933,0.12652017372919996,-7.124693409965945,0.12652017372919996,-7.124693409965945,0.12652017372919996,-7.124693409965945,0.026486847066801933,-7.987898906806342,0.026486847066801933,-7.987898906806342,0.026486847066801933,-7.987898906806342,0.3446965428831902,-5.197341316194842,0.3446965428831902,-5.197341316194842,0.3446965428831902,-5.197341316194842,0.02083793490190488,-7.987664506896785,0.02083793490190488,-7.987664506896785,0.02083793490190488,-7.987664506896785,1.5489795918367348,0.6455862977602107
-7.437602104275037,0.1320014976539626,-5.342282087585467,0.3438888688764607,-8.244229987520601,0.019416688088164064,-8.244469146886285,0.02466171448151524,0.1320014976539626,-7.437602104275037,0.1320014976539626,-7.437602104275037,0.1320014976539626,-7.437602104275037,0.02466171448151524,-8.244469146886285,0.02466171448151524,-8.244469146886285,0.02466171448151524,-8.244469146886285,0.3438888688764607,-5.342282087585467,0.3438888688764607,-5.342282087585467,0.3438888688764607,-5.342282087585467,0.019416688088164064,-8.244229987520601,0.019416688088164064,-8.244229987520601,0.019416688088164064,-8.244229987520601,1.5510204081632653,0.6447368421052632
-7.7322928851958945,0.1380077534678732,-5.4881488135779195,0.3430512102646702,-8.494133754572784,0.017966054644625844,-8.494374011997206,0.02280204848392913,0.1380077534678732,-7.7322928851958945,0.1380077534678732,-7.7322928851958945,0.1380077534678732,-7.7322928851958945,0.02280204848392913,-8.494374011997206,0.02280204848392913,-8.494374011997206,0.02280204848392913,-8.494374011997206,0.3430512102646702,-5.4881488135779195,0.3430512102646702,-5.4881488135779195,0.3430512102646702,-5.4881488135779195,0.017966054644625844,-8.494133754572784,0.017966054644625844,-8.494133754572784,0.017966054644625844,-8.494133754572784,1.5530612244897959,0.6438896189224704
-8.009265005571907,0.14381866501678572,-5.63474393598895,0.34182663661936646,-8.737084451419786,0.01655157902802415,-8.73732211408246,0.020991045562660637,0.14381866501678572,-8.009265005571907,0.14381866501678572,-8.009265005571907,0.14381866501678572,-8.009265005571907,0.020991045562660637,-8.73732211408246,0.020991045562660637,-8.73732211408246,0.020991045562660637,-8.73732211408246,0.34182663661936646,-5.63474393598895,0.34182663661936646,-5.63474393598895,0.34182663661936646,-5.63474393598895,0.01655157902802415,-8.737084451419786,0.01655157902802415,-8.737084451419786,0.01655157902802415,-8.737084451419786,1.5551020408163265,0.6430446194225722
-8.270376340358915,0.1488512206722624,-5.781372776475236,0.3399149055711481,-8.973643526464873,0.01521511997297245,-8.9738747130492,0.019281632016884095,0.1488512206722624,-8.270376340358915,0.1488512206722624,-8.270376340358915,0.1488512206722624,-8.270376340358915,0.019281632016884095,-8.9738747130492,0.019281632016884095,-8.9738747130492,0.019281632016884095,-8.9738747130492,0.3399149055711481,-5.781372776475236,0.3399149055711481,-5.781372776475236,0.3399149055711481,-5.781372776475236,0.01521511997297245,-8.973643526464873,0.01521511997297245,-8.973643526464873,0.01521511997297245,-8.973643526464873,1.5571428571428572,0.6422018348623854
