s11a,s11m,s31a,s31m,s41a,s41m,s21a,s21m,s22m,s22a,s33m,s33a,s44m,s44a,s12m,s12a,s34m,s34a,s43m,s43a,s13m,s13a,s24m,s24a,s42m,s42a,s14m,s14a,s23m,s23a,s32m,s32a,wavelengths,freqs
1.11165292798788,0.036911875592902196,-1.535249731002277,0.39359595739315106,-2.6367863444359214,0.025283702319322882,-2.6382453503226366,0.032772188277967226,0.036911875592902196,1.11165292798788,0.036911875592902196,1.11165292798788,0.036911875592902196,1.11165292798788,0.032772188277967226,-2.6382453503226366,0.032772188277967226,-2.6382453503226366,0.032772188277967226,-2.6382453503226366,0.39359595739315106,-1.535249731002277,0.39359595739315106,-1.535249731002277,0.39359595739315106,-1.535249731002277,0.025283702319322882,-2.6367863444359214,0.025283702319322882,-2.6367863444359214,0.025283702319322882,-2.6367863444359214,1.5,0.6666666666666666
0.3818570781270405,0.030814409690278634,-1.7035690049111187,0.3884024488380859,-2.8592055504642846,0.024906889619375858,-2.8604674184293333,0.03223792252146652,0.030814409690278634,0.3818570781270405,0.030814409690278634,0.3818570781270405,0.030814409690278634,0.3818570781270405,0.03223792252146652,-2.8604674184293333,0.03223792252146652,-2.8604674184293333,0.03223792252146652,-2.8604674184293333,0.3884024488380859,-1.7035690049111187,0.3884024488380859,-1.7035690049111187,0.3884024488380859,-1.7035690049111187,0.024906889619375858,-2.8592055504642846,0.024906889619375858,-2.8592055504642846,0.024906889619375858,-2.8592055504642846,1.5020408163265306,0.6657608695652174
-0.4095221165168958,0.035456667691536464,-1.868147011803806,0.38278550556635754,-3.07480289969815,0.024444860884904267,-3.0756887177054386,0.03159924259341631,0.035456667691536464,-0.4095221165168958,0.035456667691536464,-0.4095221165168958,0.035456667691536464,-0.4095221165168958,0.03159924259341631,-3.0756887177054386,0.03159924259341631,-3.0756887177054386,0.03159924259341631,-3.0756887177054386,0.38278550556635754,-1.868147011803806,0.38278550556635754,-1.868147011803806,0.38278550556635754,-1.868147011803806,0.024444860884904267,-3.07480289969815,0.024444860884904267,-3.07480289969815,0.024444860884904267,-3.07480289969815,1.5040816326530613,0.6648575305291723
-0.9869219410214564,0.04873083999938527,-2.0287667976369503,0.37713907219929743,-3.2826976660287426,0.023944842785728063,-3.2830901910493346,0.030919126098147124,0.04873083999938527,-0.9869219410214564,0.04873083999938527,-0.9869219410214564,0.04873083999938527,-0.9869219410214564,0.030919126098147124,-3.2830901910493346,0.030919126098147124,-3.2830901910493346,0.030919126098147124,-3.2830901910493346,0.37713907219929743,-2.0287667976369503,0.37713907219929743,-2.0287667976369503,0.37713907219929743,-2.0287667976369503,0.023944842785728063,-3.2826976660287426,0.023944842785728063,-3.2826976660287426,0.023944842785728063,-3.2826976660287426,1.506122448979592,0.6639566395663956
-1.3951997172460608,0.06564405183797041,-2.1855561684656677,0.37185068523253273,-3.4825694755147008,0.023462635228832452,-3.482435612768564,0.03027035979737849,0.06564405183797041,-1.3951997172460608,0.06564405183797041,-1.3951997172460608,0.06564405183797041,-1.3951997172460608,0.03027035979737849,-3.482435612768564,0.03027035979737849,-3.482435612768564,0.03027035979737849,-3.482435612768564,0.37185068523253273,-2.1855561684656677,0.37185068523253273,-2.1855561684656677,0.37185068523253273,-2.1855561684656677,0.023462635228832452,-3.4825694755147008,0.023462635228832452,-3.4825694755147008,0.023462635228832452,-3.4825694755147008,1.5081632653061225,0.6630581867388362
-1.7209642334530886,0.08350384244233698,-2.3389969758462796,0.367251619262828,-3.6749355274371656,0.023056399868512885,-3.674339042541066,0.029727329665155167,0.08350384244233698,-1.7209642334530886,0.08350384244233698,-1.7209642334530886,0.08350384244233698,-1.7209642334530886,0.029727329665155167,-3.674339042541066,0.029727329665155167,-3.674339042541066,0.029727329665155167,-3.674339042541066,0.367251619262828,-2.3389969758462796,0.367251619262828,-2.3389969758462796,0.367251619262828,-2.3389969758462796,0.023056399868512885,-3.6749355274371656,0.023056399868512885,-3.6749355274371656,0.023056399868512885,-3.6749355274371656,1.510204081632653,0.6621621621621622
-2.0063201433484905,0.1009289940980879,-2.489870223068051,0.3635735159215052,-3.8613310117444652,0.022778459705434632,-3.860425831915617,0.029355486858749235,0.1009289940980879,-2.0063201433484905,0.1009289940980879,-2.0063201433484905,0.1009289940980879,-2.0063201433484905,0.029355486858749235,-3.860425831915617,0.029355486858749235,-3.860425831915617,0.029355486858749235,-3.860425831915617,0.3635735159215052,-2.489870223068051,0.3635735159215052,-2.489870223068051,0.3635735159215052,-2.489870223068051,0.022778459705434632,-3.8613310117444652,0.022778459705434632,-3.8613310117444652,0.022778459705434632,-3.8613310117444652,1.5122448979591836,0.6612685560053981
-2.270415790787728,0.11704157576229982,-2.639138984305492,0.3609209961756138,-4.0442662954647215,0.022666622264494354,-4.043264527905208,0.02920053163323003,0.11704157576229982,-2.270415790787728,0.11704157576229982,-2.270415790787728,0.11704157576229982,-2.270415790787728,0.02920053163323003,-4.043264527905208,0.02920053163323003,-4.043264527905208,0.02920053163323003,-4.043264527905208,0.3609209961756138,-2.639138984305492,0.3609209961756138,-2.639138984305492,0.3609209961756138,-2.639138984305492,0.022666622264494354,-4.0442662954647215,0.022666622264494354,-4.0442662954647215,0.022666622264494354,-4.0442662954647215,1.5142857142857142,0.6603773584905661
-2.522775947097632,0.1312129218893888,-2.7877936492185555,0.359266395579383,-4.226892367320874,0.0227373829687913,-4.2260128479217665,0.02928033069012581,0.1312129218893888,-2.522775947097632,0.1312129218893888,-2.522775947097632,0.1312129218893888,-2.522775947097632,0.02928033069012581,-4.2260128479217665,0.02928033069012581,-4.2260128479217665,0.02928033069012581,-4.2260128479217665,0.359266395579383,-2.7877936492185555,0.359266395579383,-2.7877936492185555,0.359266395579383,-2.7877936492185555,0.0227373829687913,-4.226892367320874,0.0227373829687913,-4.226892367320874,0.0227373829687913,-4.226892367320874,1.5163265306122449,0.6594885598923285
-2.7687215639738696,0.14299032246141682,-2.936698789273174,0.35846686209892364,-4.4124495876601895,0.022983240039104257,-4.411865375236188,0.02958224811935119,0.14299032246141682,-2.7687215639738696,0.14299032246141682,-2.7687215639738696,0.14299032246141682,-2.7687215639738696,0.02958224811935119,-4.411865375236188,0.02958224811935119,-4.411865375236188,0.02958224811935119,-4.411865375236188,0.35846686209892364,-2.936698789273174,0.35846686209892364,-2.936698789273174,0.35846686209892364,-2.936698789273174,0.022983240039104257,-4.4124495876601895,0.022983240039104257,-4.4124495876601895,0.022983240039104257,-4.4124495876601895,1.5183673469387755,0.6586021505376344
-3.0116423940371195,0.15207480837400297,-3.0864788306944115,0.3582981788513038,-4.603706864347944,0.023374913254684198,-4.6035120067999635,0.030066622666659805,0.15207480837400297,-3.0116423940371195,0.15207480837400297,-3.0116423940371195,0.15207480837400297,-3.0116423940371195,0.030066622666659805,-4.6035120067999635,0.030066622666659805,-4.6035120067999635,0.030066622666659805,-4.6035120067999635,0.3582981788513038,-3.0864788306944115,0.3582981788513038,-3.0864788306944115,0.3582981788513038,-3.0864788306944115,0.023374913254684198,-4.603706864347944,0.023374913254684198,-4.603706864347944,0.023374913254684198,-4.603706864347944,1.5204081632653061,0.6577181208053691
-3.254037961749633,0.1583119470583852,-3.237462616865142,0.35849641841802166,-4.802599629900351,0.023867292341874596,-4.802803986889868,0.03067468183690557,0.1583119470583852,-3.254037961749633,0.1583119470583852,-3.254037961749633,0.1583119470583852,-3.254037961749633,0.03067468183690557,-4.802803986889868,0.03067468183690557,-4.802803986889868,0.03067468183690557,-4.802803986889868,0.35849641841802166,-3.237462616865142,0.35849641841802166,-3.237462616865142,0.35849641841802166,-3.237462616865142,0.023867292341874596,-4.802599629900351,0.023867292341874596,-4.802599629900351,0.023867292341874596,-4.802599629900351,1.5224489795918368,0.6568364611260054
-3.4980413155822125,0.16168516691638238,-3.389685905033247,0.35879876468405064,-5.010145113885552,0.024406787962089654,-5.01069132642467,0.03133790096132186,0.16168516691638238,-3.4980413155822125,0.16168516691638238,-3.4980413155822125,0.16168516691638238,-3.4980413155822125,0.03133790096132186,-5.01069132642467,0.03133790096132186,-5.01069132642467,0.03133790096132186,-5.01069132642467,0.35879876468405064,-3.389685905033247,0.35879876468405064,-3.389685905033247,0.35879876468405064,-3.389685905033247,0.024406787962089654,-5.010145113885552,0.024406787962089654,-5.010145113885552,0.024406787962089654,-5.010145113885552,1.5244897959183674,0.6559571619812583
-3.745708042415615,0.1623098696857722,-3.542936752473416,0.3589774651856972,-5.226571142290984,0.02493799144585704,-5.227360968390947,0.031986261303028965,0.1623098696857722,-3.745708042415615,0.1623098696857722,-3.745708042415615,0.1623098696857722,-3.745708042415615,0.031986261303028965,-5.227360968390947,0.031986261303028965,-5.227360968390947,0.031986261303028965,-5.227360968390947,0.3589774651856972,-3.542936752473416,0.3589774651856972,-3.542936752473416,0.3589774651856972,-3.542936752473416,0.02493799144585704,-5.226571142290984,0.02493799144585704,-5.226571142290984,0.02493799144585704,-5.226571142290984,1.526530612244898,0.6550802139037433
-3.999187286774703,0.16042908606124381,-3.6968252227365443,0.358863985885222,-5.4515368529623425,0.025408601457802972,-5.45245618997817,0.032554230103744045,0.16042908606124381,-3.999187286774703,0.16042908606124381,-3.999187286774703,0.16042908606124381,-3.999187286774703,0.032554230103744045,-5.45245618997817,0.032554230103744045,-5.45245618997817,0.032554230103744045,-5.45245618997817,0.358863985885222,-3.6968252227365443,0.358863985885222,-3.6968252227365443,0.358863985885222,-3.6968252227365443,0.025408601457802972,-5.4515368529623425,0.025408601457802972,-5.4515368529623425,0.025408601457802972,-5.4515368529623425,1.5285714285714287,0.6542056074766355
-4.260815762182841,0.15641143585048628,-3.850862663312699,0.358362645056635,-5.684347528469631,0.025772567835054553,-5.685285038472173,0.03298449701442,0.15641143585048628,-4.260815762182841,0.15641143585048628,-4.260815762182841,0.15641143585048628,-4.260815762182841,0.03298449701442,-5.685285038472173,0.03298449701442,-5.685285038472173,0.03298449701442,-5.685285038472173,0.358362645056635,-3.850862663312699,0.358362645056635,-3.850862663312699,0.358362645056635,-3.850862663312699,0.025772567835054553,-5.684347528469631,0.025772567835054553,-5.684347528469631,0.025772567835054553,-5.684347528469631,1.530612244897959,0.6533333333333333
-4.533125838071891,0.15075082687509384,-4.00454151134918,0.35745395997428864,-5.924117326254597,0.025991902948104408,-5.924976055256316,0.033230076285945306,0.15075082687509384,-4.533125838071891,0.15075082687509384,-4.533125838071891,0.15075082687509384,-4.533125838071891,0.033230076285945306,-5.924976055256316,0.033230076285945306,-5.924976055256316,0.033230076285945306,-5.924976055256316,0.35745395997428864,-4.00454151134918,0.35745395997428864,-4.00454151134918,0.35745395997428864,-4.00454151134918,0.025991902948104408,-5.924117326254597,0.025991902948104408,-5.924117326254597,0.025991902948104408,-5.924117326254597,1.5326530612244897,0.6524633821571239
-4.818708581403523,0.14406470886372563,-4.157410207554154,0.3561881086852665,-6.169873616563749,0.026037668384731563,-6.170577099561069,0.03325542003342047,0.14406470886372563,-4.818708581403523,0.14406470886372563,-4.818708581403523,0.14406470886372563,-4.818708581403523,0.03325542003342047,-6.170577099561069,0.03325542003342047,-6.170577099561069,0.03325542003342047,-6.170577099561069,0.3561881086852665,-4.157410207554154,0.3561881086852665,-4.157410207554154,0.3561881086852665,-4.157410207554154,0.026037668384731563,-6.169873616563749,0.026037668384731563,-6.169873616563749,0.026037668384731563,-6.169873616563749,1.5346938775510204,0.6515957446808511
-5.11981980954631,0.13708319782943226,-4.309138035382992,0.3546690433304162,-6.420615487132749,0.02589048219610537,-6.421110231510972,0.03303696836990576,0.13708319782943226,-5.11981980954631,0.13708319782943226,-5.11981980954631,0.13708319782943226,-5.11981980954631,0.03303696836990576,-6.421110231510972,0.03303696836990576,-6.421110231510972,0.03303696836990576,-6.421110231510972,0.3546690433304162,-4.309138035382992,0.3546690433304162,-4.309138035382992,0.3546690433304162,-4.309138035382992,0.02589048219610537,-6.420615487132749,0.02589048219610537,-6.420615487132749,0.02589048219610537,-6.420615487132749,1.536734693877551,0.650730411686587
-5.437604318354202,0.1306148584137829,-4.459562533694129,0.35303050352184767,-6.6753428536305055,0.02554069175480397,-6.675598739253422,0.03256330813035887,0.1306148584137829,-5.437604318354202,0.1306148584137829,-5.437604318354202,0.1306148584137829,-5.437604318354202,0.03256330813035887,-6.675598739253422,0.03256330813035887,-6.675598739253422,0.03256330813035887,-6.675598739253422,0.35303050352184767,-4.459562533694129,0.35303050352184767,-4.459562533694129,0.35303050352184767,-4.459562533694129,0.02554069175480397,-6.6753428536305055,0.02554069175480397,-6.6753428536305055,0.02554069175480397,-6.6753428536305055,1.5387755102040817,0.649867374005305
-5.770962174585004,0.12546994809717463,-4.608710044046177,0.3514066503363572,-6.93306958419941,0.02498821284450822,-6.933079199088642,0.031834932950199624,0.12546994809717463,-5.770962174585004,0.12546994809717463,-5.770962174585004,0.12546994809717463,-5.770962174585004,0.031834932950199624,-6.933079199088642,0.031834932950199624,-6.933079199088642,0.031834932950199624,-6.933079199088642,0.3514066503363572,-4.608710044046177,0.3514066503363572,-4.608710044046177,0.3514066503363572,-4.608710044046177,0.02498821284450822,-6.93306958419941,0.02498821284450822,-6.93306958419941,0.02498821284450822,-6.93306958419941,1.5408163265306123,0.6490066225165563
-6.115521634970888,0.12233037407764957,-4.756780904945849,0.3499018829186956,-7.192829245024919,0.024241974950155443,-7.192606731637484,0.03086352455470252,0.12233037407764957,-6.115521634970888,0.12233037407764957,-6.115521634970888,0.12233037407764957,-6.115521634970888,0.03086352455470252,-7.192606731637484,0.03086352455470252,-7.192606731637484,0.03086352455470252,-7.192606731637484,0.3499018829186956,-4.756780904945849,0.3499018829186956,-4.756780904945849,0.3499018829186956,-4.756780904945849,0.024241974950155443,-7.192829245024919,0.024241974950155443,-7.192829245024919,0.024241974950155443,-7.192829245024919,1.542857142857143,0.6481481481481481
-6.463685219756609,0.12159187017236746,-4.904096650823308,0.34856573292659393,-7.4536778123976974,0.023318927407694343,-7.453257480772206,0.029670695989072838,0.12159187017236746,-6.463685219756609,0.12159187017236746,-6.463685219756609,0.12159187017236746,-6.463685219756609,0.029670695989072838,-7.453257480772206,0.029670695989072838,-7.453257480772206,0.029670695989072838,-7.453257480772206,0.34856573292659393,-4.904096650823308,0.34856573292659393,-4.904096650823308,0.34856573292659393,-4.904096650823308,0.023318927407694343,-7.4536778123976974,0.023318927407694343,-7.4536778123976974,0.023318927407694343,-7.4536778123976974,1.5448979591836736,0.6472919418758256
-6.806415894899918,0.12325296454254255,-5.0510163856888335,0.34737859734599386,-7.714694673996782,0.022242624434951404,-7.714129421444479,0.028286218242208144,0.12325296454254255,-6.806415894899918,0.12325296454254255,-6.806415894899918,0.12325296454254255,-6.806415894899918,0.028286218242208144,-7.714129421444479,0.028286218242208144,-7.714129421444479,0.028286218242208144,-7.714129421444479,0.34737859734599386,-5.0510163856888335,0.34737859734599386,-5.0510163856888335,0.34737859734599386,-5.0510163856888335,0.022242624434951404,-7.714694673996782,0.022242624434951404,-7.714694673996782,0.022242624434951404,-7.714694673996782,1.5469387755102042,0.646437994722955
-7.135972057418581,0.1269252375190883,-5.197839219115509,0.34625204186865516,-7.974981455068931,0.021041485857302897,-7.974340878684792,0.026745850756682635,0.1269252375190883,-7.135972057418581,0.1269252375190883,-7.135972057418581,0.1269252375190883,-7.135972057418581,0.026745850756682635,-7.974340878684792,0.026745850756682635,-7.974340878684792,0.026745850756682635,-7.974340878684792,0.34625204186865516,-5.197839219115509,0.34625204186865516,-5.197839219115509,0.34625204186865516,-5.197839219115509,0.021041485857302897,-7.974981455068931,0.021041485857302897,-7.974981455068931,0.021041485857302897,-7.974981455068931,1.5489795918367348,0.6455862977602107
-7.447792435798579,0.1319612325685965,-5.344714223308391,0.3450440186692427,-8.23365741495738,0.019746894563766517,-8.233025378185163,0.025088976451922027,0.1319612325685965,-7.447792435798579,0.1319612325685965,-7.447792435798579,0.1319612325685965,-7.447792435798579,0.025088976451922027,-8.233025378185163,0.025088976451922027,-8.233025378185163,0.025088976451922027,-8.233025378185163,0.3450440186692427,-5.344714223308391,0.3450440186692427,-5.344714223308391,0.3450440186692427,-5.344714223308391,0.019746894563766517,-8.23365741495738,0.019746894563766517,-8.23365741495738,0.019746894563766517,-8.23365741495738,1.5510204081632653,0.6447368421052632
-7.740636329497437,0.13762004380622886,-5.491576310237315,0.3435859019794929,-8.489850106977983,0.01839132218857199,-8.489321398061673,0.023356279528194513,0.13762004380622886,-7.740636329497437,0.13762004380622886,-7.740636329497437,0.13762004380622886,-7.740636329497437,0.023356279528194513,-8.489321398061673,0.023356279528194513,-8.489321398061673,0.023356279528194513,-8.489321398061673,0.3435859019794929,-5.491576310237315,0.3435859019794929,-5.491576310237315,0.3435859019794929,-5.491576310237315,0.01839132218857199,-8.489850106977983,0.01839132218857199,-8.489850106977983,0.01839132218857199,-8.489850106977983,1.5530612244897959,0.6438896189224704
-8.015581770973386,0.1431948831272346,-5.638117767130408,0.34171607461602005,-8.742680519614566,0.017006665980614573,-8.742356099717004,0.021587693297340782,0.1431948831272346,-8.015581770973386,0.1431948831272346,-8.015581770973386,0.1431948831272346,-8.015581770973386,0.021587693297340782,-8.742356099717004,0.021587693297340782,-8.742356099717004,0.021587693297340782,-8.742356099717004,0.34171607461602005,-5.638117767130408,0.34171607461602005,-5.638117767130408,0.34171607461602005,-5.638117767130408,0.017006665980614573,-8.742680519614566,0.017006665980614573,-8.742680519614566,0.017006665980614573,-8.742680519614566,1.5551020408163265,0.6430446194225722
-8.274864939484296,0.14807988955618523,-5.783795952806699,0.33931446554655625,-8.991243047650933,0.015622938938974047,-8.991223222795245,0.019820794148958973,0.14807988955618523,-8.274864939484296,0.14807988955618523,-8.274864939484296,0.14807988955618523,-8.274864939484296,0.019820794148958973,-8.991223222795245,0.019820794148958973,-8.991223222795245,0.019820794148958973,-8.991223222795245,0.33931446554655625,-5.783795952806699,0.33931446554655625,-5.783795952806699,0.33931446554655625,-5.783795952806699,0.015622938938974047,-8.991243047650933,0.015622938938974047,-8.991243047650933,0.015622938938974047,-8.991243047650933,1.5571428571428572,0.6422018348623854
