s11a,s11m,s31a,s31m,s41a,s41m,s21a,s21m,s22m,s22a,s33m,s33a,s44m,s44a,s12m,s12a,s34m,s34a,s43m,s43a,s13m,s13a,s24m,s24a,s42m,s42a,s14m,s14a,s23m,s23a,s32m,s32a,wavelengths,freqs
1.1048955367609148,0.03671836618569439,-1.5367513843261533,0.38994648752018257,-2.602118922250378,0.024869048470012475,-2.602166356007004,0.032238672133750264,0.03671836618569439,1.1048955367609148,0.03671836618569439,1.1048955367609148,0.03671836618569439,1.1048955367609148,0.032238672133750264,-2.602166356007004,0.032238672133750264,-2.602166356007004,0.032238672133750264,-2.602166356007004,0.38994648752018257,-1.5367513843261533,0.38994648752018257,-1.5367513843261533,0.38994648752018257,-1.5367513843261533,0.024869048470012475,-2.602118922250378,0.024869048470012475,-2.602118922250378,0.024869048470012475,-2.602118922250378,1.5,0.6666666666666666
0.36566122193231804,0.03061145004324339,-1.7002576401949885,0.38498287147955335,-2.8180777716655423,0.024963773967261106,-2.8181333176786496,0.03233253925558103,0.03061145004324339,0.36566122193231804,0.03061145004324339,0.36566122193231804,0.03061145004324339,0.36566122193231804,0.03233253925558103,-2.8181333176786496,0.03233253925558103,-2.8181333176786496,0.03233253925558103,-2.8181333176786496,0.38498287147955335,-1.7002576401949885,0.38498287147955335,-1.7002576401949885,0.38498287147955335,-1.7002576401949885,0.024963773967261106,-2.8180777716655423,0.024963773967261106,-2.8180777716655423,0.024963773967261106,-2.8180777716655423,1.5020408163265306,0.6657608695652174
-0.43073531746051413,0.03529125248863,-1.8608076814945196,0.3804785646539268,-3.037630503357914,0.025028962539291762,-3.0376952756168283,0.032388261925599134,0.03529125248863,-0.43073531746051413,0.03529125248863,-0.43073531746051413,0.03529125248863,-0.43073531746051413,0.032388261925599134,-3.0376952756168283,0.032388261925599134,-3.0376952756168283,0.032388261925599134,-3.0376952756168283,0.3804785646539268,-1.8608076814945196,0.3804785646539268,-1.8608076814945196,0.3804785646539268,-1.8608076814945196,0.025028962539291762,-3.037630503357914,0.025028962539291762,-3.037630503357914,0.025028962539291762,-3.037630503357914,1.5040816326530613,0.6648575305291723
-1.006478559811691,0.04842338479559389,-2.0192715422028202,0.376572752145295,-3.2608678543596366,0.024960068949761653,-3.260945447379358,0.032270742555718525,0.04842338479559389,-1.006478559811691,0.04842338479559389,-1.006478559811691,0.04842338479559389,-1.006478559811691,0.032270742555718525,-3.260945447379358,0.032270742555718525,-3.260945447379358,0.032270742555718525,-3.260945447379358,0.376572752145295,-2.0192715422028202,0.376572752145295,-2.0192715422028202,0.376572752145295,-2.0192715422028202,0.024960068949761653,-3.2608678543596366,0.024960068949761653,-3.2608678543596366,0.024960068949761653,-3.2608678543596366,1.506122448979592,0.6639566395663956
-1.410702211793082,0.06494985250040104,-2.1765486980304307,0.37321274328221377,-3.4849390784628573,0.024657595305695747,-3.4850342170709347,0.031851844037054294,0.06494985250040104,-1.410702211793082,0.06494985250040104,-1.410702211793082,0.06494985250040104,-1.410702211793082,0.031851844037054294,-3.4850342170709347,0.031851844037054294,-3.4850342170709347,0.031851844037054294,-3.4850342170709347,0.37321274328221377,-2.1765486980304307,0.37321274328221377,-2.1765486980304307,0.37321274328221377,-2.1765486980304307,0.024657595305695747,-3.4849390784628573,0.024657595305695747,-3.4849390784628573,0.024657595305695747,-3.4849390784628573,1.5081632653061225,0.6630581867388362
-1.7306694064189079,0.08229157663232747,-2.3332171266457604,0.37016365864685613,-3.7040957313902383,0.024081324804977527,-3.704213401682741,0.03108035159137772,0.08229157663232747,-1.7306694064189079,0.08229157663232747,-1.7306694064189079,0.08229157663232747,-1.7306694064189079,0.03108035159137772,-3.704213401682741,0.03108035159137772,-3.704213401682741,0.03108035159137772,-3.704213401682741,0.37016365864685613,-2.3332171266457604,0.37016365864685613,-2.3332171266457604,0.37016365864685613,-2.3332171266457604,0.024081324804977527,-3.7040957313902383,0.024081324804977527,-3.7040957313902383,0.024081324804977527,-3.7040957313902383,1.510204081632653,0.6621621621621622
-2.008894892020562,0.09926347809224759,-2.4892037221150756,0.3671291197019847,-3.9110550964105193,0.023298054256012325,-3.9111978016939823,0.030043208937876185,0.09926347809224759,-2.008894892020562,0.09926347809224759,-2.008894892020562,0.09926347809224759,-2.008894892020562,0.030043208937876185,-3.9111978016939823,0.030043208937876185,-3.9111978016939823,0.030043208937876185,-3.9111978016939823,0.3671291197019847,-2.4892037221150756,0.3671291197019847,-2.4892037221150756,0.3671291197019847,-2.4892037221150756,0.023298054256012325,-3.9110550964105193,0.023298054256012325,-3.9110550964105193,0.023298054256012325,-3.9110550964105193,1.5122448979591836,0.6612685560053981
-2.2653270568753583,0.11520744837783096,-2.643721086702776,0.36396190887214225,-4.0998932171105995,0.022491253086451557,-4.100058268031448,0.0289774510038856,0.11520744837783096,-2.2653270568753583,0.11520744837783096,-2.2653270568753583,0.11520744837783096,-2.2653270568753583,0.0289774510038856,-4.100058268031448,0.0289774510038856,-4.100058268031448,0.0289774510038856,-4.100058268031448,0.36396190887214225,-2.643721086702776,0.36396190887214225,-2.643721086702776,0.36396190887214225,-2.643721086702776,0.022491253086451557,-4.0998932171105995,0.022491253086451557,-4.0998932171105995,0.022491253086451557,-4.0998932171105995,1.5142857142857142,0.6603773584905661
-2.510742988121848,0.12971262940173736,-2.795811208715263,0.36087941066406876,-4.269939465589145,0.021910564439303906,-4.2701176817325255,0.028204570787766642,0.12971262940173736,-2.510742988121848,0.12971262940173736,-2.510742988121848,0.12971262940173736,-2.510742988121848,0.028204570787766642,-4.2701176817325255,0.028204570787766642,-4.2701176817325255,0.028204570787766642,-4.2701176817325255,0.36087941066406876,-2.795811208715263,0.36087941066406876,-2.795811208715263,0.36087941066406876,-2.795811208715263,0.021910564439303906,-4.269939465589145,0.021910564439303906,-4.269939465589145,0.021910564439303906,-4.269939465589145,1.5163265306122449,0.6594885598923285
-2.7524984475391867,0.14242013861640648,-2.9454150505627474,0.35836666907863207,-4.428317100890199,0.021774658234424024,-4.428494280271156,0.028005241066959112,0.14242013861640648,-2.7524984475391867,0.14242013861640648,-2.7524984475391867,0.14242013861640648,-2.7524984475391867,0.028005241066959112,-4.428494280271156,0.028005241066959112,-4.428494280271156,0.028005241066959112,-4.428494280271156,0.35836666907863207,-2.9454150505627474,0.35836666907863207,-2.9454150505627474,0.35836666907863207,-2.9454150505627474,0.021774658234424024,-4.428317100890199,0.021774658234424024,-4.428317100890199,0.021774658234424024,-4.428317100890199,1.5183673469387755,0.6586021505376344
-2.995727056456885,0.15279517596072956,-3.0935709318662608,0.3567367793543342,-4.588250527274727,0.02217989228497782,-4.588414416186839,0.028502058087761996,0.15279517596072956,-2.995727056456885,0.15279517596072956,-2.995727056456885,0.15279517596072956,-2.995727056456885,0.028502058087761996,-4.588414416186839,0.028502058087761996,-4.588414416186839,0.028502058087761996,-4.588414416186839,0.3567367793543342,-3.0935709318662608,0.3567367793543342,-3.0935709318662608,0.3567367793543342,-3.0935709318662608,0.02217989228497782,-4.588250527274727,0.02217989228497782,-4.588250527274727,0.02217989228497782,-4.588250527274727,1.5204081632653061,0.6577181208053691
-3.2427733635950786,0.16020066200292146,-3.241393723309717,0.35596837141560445,-4.7633181109541365,0.023061079557848873,-4.763464095927521,0.029609707033457663,0.16020066200292146,-3.2427733635950786,0.16020066200292146,-3.2427733635950786,0.16020066200292146,-3.2427733635950786,0.029609707033457663,-4.763464095927521,0.029609707033457663,-4.763464095927521,0.029609707033457663,-4.763464095927521,0.35596837141560445,-3.241393723309717,0.35596837141560445,-3.241393723309717,0.35596837141560445,-3.241393723309717,0.023061079557848873,-4.7633181109541365,0.023061079557848873,-4.7633181109541365,0.023061079557848873,-4.7633181109541365,1.5224489795918368,0.6568364611260054
-3.4940106062518157,0.16422823009855694,-3.389590738957745,0.35594938936965953,-4.961779179130712,0.02421556785699923,-4.9619102173132905,0.03106670299107861,0.16422823009855694,-3.4940106062518157,0.16422823009855694,-3.4940106062518157,0.16422823009855694,-3.4940106062518157,0.03106670299107861,-4.9619102173132905,0.03106670299107861,-4.9619102173132905,0.03106670299107861,-4.9619102173132905,0.35594938936965953,-3.389590738957745,0.35594938936965953,-3.389590738957745,0.35594938936965953,-3.389590738957745,0.02421556785699923,-4.961779179130712,0.02421556785699923,-4.961779179130712,0.02421556785699923,-4.961779179130712,1.5244897959183674,0.6559571619812583
-3.7494928728305,0.16485067391571387,-3.5388725099805725,0.35656663971971747,-5.184634508304345,0.025369785329824528,-5.184757804856991,0.03252142600306647,0.16485067391571387,-3.7494928728305,0.16485067391571387,-3.7494928728305,0.16485067391571387,-3.7494928728305,0.03252142600306647,-5.184757804856991,0.03252142600306647,-5.184757804856991,0.03252142600306647,-5.184757804856991,0.35656663971971747,-3.5388725099805725,0.35656663971971747,-3.5388725099805725,0.35656663971971747,-3.5388725099805725,0.025369785329824528,-5.184634508304345,0.025369785329824528,-5.184634508304345,0.025369785329824528,-5.184634508304345,1.526530612244898,0.6550802139037433
-4.009680937473202,0.16237039074869788,-3.6900096147684756,0.35756568112282205,-5.426954780763394,0.026262391881215718,-5.42707773771696,0.033639030250833986,0.16237039074869788,-4.009680937473202,0.16237039074869788,-4.009680937473202,0.16237039074869788,-4.009680937473202,0.033639030250833986,-5.42707773771696,0.033639030250833986,-5.42707773771696,0.033639030250833986,-5.42707773771696,0.35756568112282205,-3.6900096147684756,0.35756568112282205,-3.6900096147684756,0.35756568112282205,-3.6900096147684756,0.026262391881215718,-5.426954780763394,0.026262391881215718,-5.426954780763394,0.026262391881215718,-5.426954780763394,1.5285714285714287,0.6542056074766355
-4.275611371739912,0.15736631289331035,-3.843372854618858,0.3585073409765447,-5.680528501984534,0.026728709296307728,-5.680656999405812,0.03420947685223617,0.15736631289331035,-4.275611371739912,0.15736631289331035,-4.275611371739912,0.15736631289331035,-4.275611371739912,0.03420947685223617,-5.680656999405812,0.03420947685223617,-5.680656999405812,0.03420947685223617,-5.680656999405812,0.3585073409765447,-3.843372854618858,0.3585073409765447,-3.843372854618858,0.3585073409765447,-3.843372854618858,0.026728709296307728,-5.680528501984534,0.026728709296307728,-5.680528501984534,0.026728709296307728,-5.680528501984534,1.530612244897959,0.6533333333333333
-4.549169740673584,0.15062122662059477,-3.9985604374941217,0.3589019533433545,-5.937000552882727,0.026753753657790137,-5.937138746268814,0.034214840386968,0.15062122662059477,-4.549169740673584,0.15062122662059477,-4.549169740673584,0.15062122662059477,-4.549169740673584,0.034214840386968,-5.937138746268814,0.034214840386968,-5.937138746268814,0.034214840386968,-5.937138746268814,0.3589019533433545,-3.9985604374941217,0.3589019533433545,-3.9985604374941217,0.3589019533433545,-3.9985604374941217,0.026753753657790137,-5.937000552882727,0.026753753657790137,-5.937000552882727,0.026753753657790137,-5.937000552882727,1.5326530612244897,0.6524633821571239
-4.833075920658057,0.14300630375275786,-4.154460236650747,0.3584185371356384,-6.190842058378047,0.026452871272200747,-6.190992262853048,0.033803816035301054,0.14300630375275786,-4.833075920658057,0.14300630375275786,-4.833075920658057,0.14300630375275786,-4.833075920658057,0.033803816035301054,-6.190992262853048,0.033803816035301054,-6.190992262853048,0.033803816035301054,-6.190992262853048,0.3584185371356384,-4.154460236650747,0.3584185371356384,-4.154460236650747,0.3584185371356384,-4.154460236650747,0.026452871272200747,-6.190842058378047,0.026452871272200747,-6.190842058378047,0.026452871272200747,-6.190842058378047,1.5346938775510204,0.6515957446808511
-5.130285131769491,0.1353958181196436,-4.309718737307237,0.3570041585271334,-6.440984899359856,0.025984815579076295,-6.441148293782379,0.03318007964511914,0.1353958181196436,-5.130285131769491,0.1353958181196436,-5.130285131769491,0.1353958181196436,-5.130285131769491,0.03318007964511914,-6.441148293782379,0.03318007964511914,-6.441148293782379,0.03318007964511914,-6.441148293782379,0.3570041585271334,-4.309718737307237,0.3570041585271334,-4.309718737307237,0.3570041585271334,-4.309718737307237,0.025984815579076295,-6.440984899359856,0.025984815579076295,-6.440984899359856,0.025984815579076295,-6.440984899359856,1.536734693877551,0.650730411686587
-5.4428829209216625,0.12862912029495055,-4.463190715703854,0.35484517128115484,-6.6901782637025,0.025455266498925065,-6.690355383932206,0.03247894735729594,0.12862912029495055,-5.4428829209216625,0.12862912029495055,-5.4428829209216625,0.12862912029495055,-5.4428829209216625,0.03247894735729594,-6.690355383932206,0.03247894735729594,-6.690355383932206,0.03247894735729594,-6.690355383932206,0.35484517128115484,-4.463190715703854,0.35484517128115484,-4.463190715703854,0.35484517128115484,-4.463190715703854,0.025455266498925065,-6.6901782637025,0.025455266498925065,-6.6901782637025,0.025455266498925065,-6.6901782637025,1.5387755102040817,0.649867374005305
-5.770703457907153,0.12347829443234735,-4.614147896319029,0.35227668020631253,-6.94238592474467,0.024871972038207006,-6.942576635322062,0.03171046073276848,0.12347829443234735,-5.770703457907153,0.12347829443234735,-5.770703457907153,0.12347829443234735,-5.770703457907153,0.03171046073276848,-6.942576635322062,0.03171046073276848,-6.942576635322062,0.03171046073276848,-6.942576635322062,0.35227668020631253,-4.614147896319029,0.35227668020631253,-4.614147896319029,0.35227668020631253,-4.614147896319029,0.024871972038207006,-6.94238592474467,0.024871972038207006,-6.94238592474467,0.024871972038207006,-6.94238592474467,1.5408163265306123,0.6490066225165563
-6.110248266207885,0.12056393613874652,-4.762401393409742,0.3496991814461136,-7.199936362437576,0.024168914312892024,-7.200140195467955,0.030790651121543663,0.12056393613874652,-6.110248266207885,0.12056393613874652,-6.110248266207885,0.12056393613874652,-6.110248266207885,0.030790651121543663,-7.200140195467955,0.030790651121543663,-7.200140195467955,0.030790651121543663,-7.200140195467955,0.3496991814461136,-4.762401393409742,0.3496991814461136,-4.762401393409742,0.3496991814461136,-4.762401393409742,0.024168914312892024,-7.199936362437576,0.024168914312892024,-7.199936362437576,0.024168914312892024,-7.199936362437576,1.542857142857143,0.6481481481481481
-6.4546780397012835,0.12021343143738696,-4.908371345212112,0.3474757246111561,-7.462162356432154,0.023270384047715396,-7.462378279722233,0.02962345527665529,0.12021343143738696,-6.4546780397012835,0.12021343143738696,-6.4546780397012835,0.12021343143738696,-6.4546780397012835,0.02962345527665529,-7.462378279722233,0.02962345527665529,-7.462378279722233,0.02962345527665529,-7.462378279722233,0.3474757246111561,-4.908371345212112,0.3474757246111561,-4.908371345212112,0.3474757246111561,-4.908371345212112,0.023270384047715396,-7.462162356432154,0.023270384047715396,-7.462162356432154,0.023270384047715396,-7.462162356432154,1.5448979591836736,0.6472919418758256
-6.7954041688025155,0.12235265144190445,-5.052985341243857,0.34581541510748887,-7.725994299550558,0.022148265756165967,-7.726220414567067,0.028173653486953564,0.12235265144190445,-6.7954041688025155,0.12235265144190445,-6.7954041688025155,0.12235265144190445,-6.7954041688025155,0.028173653486953564,-7.726220414567067,0.028173653486953564,-7.726220414567067,0.028173653486953564,-7.726220414567067,0.34581541510748887,-5.052985341243857,0.34581541510748887,-5.052985341243857,0.34581541510748887,-5.052985341243857,0.022148265756165967,-7.725994299550558,0.022148265756165967,-7.725994299550558,0.022148265756165967,-7.725994299550558,1.5469387755102042,0.646437994722955
-7.124693198853456,0.12652028031425175,-5.197341331259795,0.34469653017981455,-7.987671136050841,0.02083845501100049,-7.987905016708272,0.026487499421691166,0.12652028031425175,-7.124693198853456,0.12652028031425175,-7.124693198853456,0.12652028031425175,-7.124693198853456,0.026487499421691166,-7.987905016708272,0.026487499421691166,-7.987905016708272,0.026487499421691166,-7.987905016708272,0.34469653017981455,-5.197341331259795,0.34469653017981455,-5.197341331259795,0.34469653017981455,-5.197341331259795,0.02083845501100049,-7.987671136050841,0.02083845501100049,-7.987671136050841,0.02083845501100049,-7.987671136050841,1.5489795918367348,0.6455862977602107
-7.437601909570768,0.13200160320849735,-5.342282136273788,0.34388886642408745,-8.244243796196706,0.019417180748953013,-8.244482367195184,0.024662332170135182,0.13200160320849735,-7.437601909570768,0.13200160320849735,-7.437601909570768,0.13200160320849735,-7.437601909570768,0.024662332170135182,-8.244482367195184,0.024662332170135182,-8.244482367195184,0.024662332170135182,-8.244482367195184,0.34388886642408745,-5.342282136273788,0.34388886642408745,-5.342282136273788,0.34388886642408745,-5.342282136273788,0.019417180748953013,-8.244243796196706,0.019417180748953013,-8.244243796196706,0.019417180748953013,-8.244243796196706,1.5510204081632653,0.6447368421052632
-7.732292715187274,0.1380078587975237,-5.4881489012048625,0.34305121178097675,-8.494155088393585,0.01796647727966272,-8.494394688882144,0.022802577775071397,0.1380078587975237,-7.732292715187274,0.1380078587975237,-7.732292715187274,0.1380078587975237,-7.732292715187274,0.022802577775071397,-8.494394688882144,0.022802577775071397,-8.494394688882144,0.022802577775071397,-8.494394688882144,0.34305121178097675,-5.4881489012048625,0.34305121178097675,-5.4881489012048625,0.34305121178097675,-5.4881489012048625,0.01796647727966272,-8.494155088393585,0.01796647727966272,-8.494155088393585,0.01796647727966272,-8.494155088393585,1.5530612244897959,0.6438896189224704
-8.009264871380557,0.1438187708183005,-5.634744057754892,0.34182663598106205,-8.73711293421587,0.016551898887515848,-8.737349877600497,0.02099144516022868,0.1438187708183005,-8.009264871380557,0.1438187708183005,-8.009264871380557,0.1438187708183005,-8.009264871380557,0.02099144516022868,-8.737349877600497,0.02099144516022868,-8.737349877600497,0.02099144516022868,-8.737349877600497,0.34182663598106205,-5.634744057754892,0.34182663598106205,-5.634744057754892,0.34182663598106205,-5.634744057754892,0.016551898887515848,-8.73711293421587,0.016551898887515848,-8.73711293421587,0.016551898887515848,-8.73711293421587,1.5551020408163265,0.6430446194225722
-8.270376256453563,0.14885132667669781,-5.781372917930387,0.3399148993810821,-8.973678057179947,0.015215316498271377,-8.973908464296182,0.019281876055701967,0.14885132667669781,-8.270376256453563,0.14885132667669781,-8.270376256453563,0.14885132667669781,-8.270376256453563,0.019281876055701967,-8.973908464296182,0.019281876055701967,-8.973908464296182,0.019281876055701967,-8.973908464296182,0.3399148993810821,-5.781372917930387,0.3399148993810821,-5.781372917930387,0.3399148993810821,-5.781372917930387,0.015215316498271377,-8.973678057179947,0.015215316498271377,-8.973678057179947,0.015215316498271377,-8.973678057179947,1.5571428571428572,0.6422018348623854
