s11a,s11m,s31a,s31m,s41a,s41m,s21a,s21m,s22m,s22a,s33m,s33a,s44m,s44a,s12m,s12a,s34m,s34a,s43m,s43a,s13m,s13a,s24m,s24a,s42m,s42a,s14m,s14a,s23m,s23a,s32m,s32a,wavelengths,freqs
3.1261976887631358,0.1809304385314609,2.329750541199536,0.6650599118490839,1.9273190669667855,0.004868463236691599,1.9545815149382089,0.03530271196198509,0.1809304385314609,3.1261976887631358,0.1809304385314609,3.1261976887631358,0.1809304385314609,3.1261976887631358,0.03530271196198509,1.9545815149382089,0.03530271196198509,1.9545815149382089,0.03530271196198509,1.9545815149382089,0.6650599118490839,2.329750541199536,0.6650599118490839,2.329750541199536,0.6650599118490839,2.329750541199536,0.004868463236691599,1.9273190669667855,0.004868463236691599,1.9273190669667855,0.004868463236691599,1.9273190669667855,1.5,0.6666666666666666
3.09585962275108,0.1788456302510505,2.141270410861195,0.6649973405748625,1.8985701937197375,0.0034609089936986684,1.9728459495745312,0.024311686265648322,0.1788456302510505,3.09585962275108,0.1788456302510505,3.09585962275108,0.1788456302510505,3.09585962275108,0.024311686265648322,1.9728459495745312,0.024311686265648322,1.9728459495745312,0.024311686265648322,1.9728459495745312,0.6649973405748625,2.141270410861195,0.6649973405748625,2.141270410861195,0.6649973405748625,2.141270410861195,0.0034609089936986684,1.8985701937197375,0.0034609089936986684,1.8985701937197375,0.0034609089936986684,1.8985701937197375,1.5020408163265306,0.6657608695652174
3.0727488425264733,0.17474273964049516,1.9508368685637116,0.6747676961568425,2.1094466616531777,0.003382185468619712,2.2141153733075325,0.02474315770400356,0.17474273964049516,3.0727488425264733,0.17474273964049516,3.0727488425264733,0.17474273964049516,3.0727488425264733,0.02474315770400356,2.2141153733075325,0.02474315770400356,2.2141153733075325,0.02474315770400356,2.2141153733075325,0.6747676961568425,1.9508368685637116,0.6747676961568425,1.9508368685637116,0.6747676961568425,1.9508368685637116,0.003382185468619712,2.1094466616531777,0.003382185468619712,2.1094466616531777,0.003382185468619712,2.1094466616531777,1.5040816326530613,0.6648575305291723
3.0602067258308807,0.1700140002936358,1.75007872906376,0.690515863688182,2.0842208378861597,0.004362519512480317,2.158098981397372,0.03237410339830144,0.1700140002936358,3.0602067258308807,0.1700140002936358,3.0602067258308807,0.1700140002936358,3.0602067258308807,0.03237410339830144,2.158098981397372,0.03237410339830144,2.158098981397372,0.03237410339830144,2.158098981397372,0.690515863688182,1.75007872906376,0.690515863688182,1.75007872906376,0.690515863688182,1.75007872906376,0.004362519512480317,2.0842208378861597,0.004362519512480317,2.0842208378861597,0.004362519512480317,2.0842208378861597,1.506122448979592,0.6639566395663956
3.055240907732801,0.16561515098525345,1.538835820608986,0.7067065506971886,1.8611797934655807,0.005351725148744385,1.9125299844386543,0.039158380164409,0.16561515098525345,3.055240907732801,0.16561515098525345,3.055240907732801,0.16561515098525345,3.055240907732801,0.039158380164409,1.9125299844386543,0.039158380164409,1.9125299844386543,0.039158380164409,1.9125299844386543,0.7067065506971886,1.538835820608986,0.7067065506971886,1.538835820608986,0.7067065506971886,1.538835820608986,0.005351725148744385,1.8611797934655807,0.005351725148744385,1.8611797934655807,0.005351725148744385,1.8611797934655807,1.5081632653061225,0.6630581867388362
3.053913293822029,0.16157893993881295,1.3209711175443792,0.7202456832531647,1.5791027108614055,0.0060504656836473086,1.6177992336172609,0.043444095871658636,0.16157893993881295,3.053913293822029,0.16157893993881295,3.053913293822029,0.16157893993881295,3.053913293822029,0.043444095871658636,1.6177992336172609,0.043444095871658636,1.6177992336172609,0.043444095871658636,1.6177992336172609,0.7202456832531647,1.3209711175443792,0.7202456832531647,1.3209711175443792,0.7202456832531647,1.3209711175443792,0.0060504656836473086,1.5791027108614055,0.0060504656836473086,1.5791027108614055,0.0060504656836473086,1.5791027108614055,1.510204081632653,0.6621621621621622
3.055134884743682,0.1575498163947105,1.100086569407311,0.7302646040623557,1.2874366640555595,0.006486843366669331,1.3185123378779757,0.04571767785145911,0.1575498163947105,3.055134884743682,0.1575498163947105,3.055134884743682,0.1575498163947105,3.055134884743682,0.04571767785145911,1.3185123378779757,0.04571767785145911,1.3185123378779757,0.04571767785145911,1.3185123378779757,0.7302646040623557,1.100086569407311,0.7302646040623557,1.100086569407311,0.7302646040623557,1.100086569407311,0.006486843366669331,1.2874366640555595,0.006486843366669331,1.2874366640555595,0.006486843366669331,1.2874366640555595,1.5122448979591836,0.6612685560053981
3.060645381810932,0.1533170561040754,0.8787244933121818,0.7368166914588126,1.0001319445739485,0.00674422434695391,1.0262758635675755,0.04670856164793038,0.1533170561040754,3.060645381810932,0.1533170561040754,3.060645381810932,0.1533170561040754,3.060645381810932,0.04670856164793038,1.0262758635675755,0.04670856164793038,1.0262758635675755,0.04670856164793038,1.0262758635675755,0.7368166914588126,0.8787244933121818,0.7368166914588126,0.8787244933121818,0.7368166914588126,0.8787244933121818,0.00674422434695391,1.0001319445739485,0.00674422434695391,1.0001319445739485,0.00674422434695391,1.0001319445739485,1.5142857142857142,0.6603773584905661
3.0731132405830817,0.149018624933655,0.6586806004540563,0.7405326140239249,0.7194703999708508,0.0068932744351779185,0.742221163627541,0.046974765475295464,0.149018624933655,3.0731132405830817,0.149018624933655,3.0731132405830817,0.149018624933655,3.0731132405830817,0.046974765475295464,0.742221163627541,0.046974765475295464,0.742221163627541,0.046974765475295464,0.742221163627541,0.7405326140239249,0.6586806004540563,0.7405326140239249,0.6586806004540563,0.7405326140239249,0.6586806004540563,0.0068932744351779185,0.7194703999708508,0.0068932744351779185,0.7194703999708508,0.0068932744351779185,0.7194703999708508,1.5163265306122449,0.6594885598923285
3.094667750407381,0.1450700369562892,0.4409492912870493,0.7423849375735909,0.44385658678803896,0.006980503426816406,0.46410729651542576,0.04686424378237313,0.1450700369562892,3.094667750407381,0.1450700369562892,3.094667750407381,0.1450700369562892,3.094667750407381,0.04686424378237313,0.46410729651542576,0.04686424378237313,0.46410729651542576,0.04686424378237313,0.46410729651542576,0.7423849375735909,0.4409492912870493,0.7423849375735909,0.4409492912870493,0.7423849375735909,0.4409492912870493,0.006980503426816406,0.44385658678803896,0.006980503426816406,0.44385658678803896,0.006980503426816406,0.44385658678803896,1.5183673469387755,0.6586021505376344
3.1259584715769524,0.1420465818462847,0.22557165439014137,0.7433530380414265,0.17060776163388838,0.007032032344296825,0.18886462947555205,0.04656228142057399,0.1420465818462847,3.1259584715769524,0.1420465818462847,3.1259584715769524,0.1420465818462847,3.1259584715769524,0.04656228142057399,0.18886462947555205,0.04656228142057399,0.18886462947555205,0.04656228142057399,0.18886462947555205,0.7433530380414265,0.22557165439014137,0.7433530380414265,0.22557165439014137,0.7433530380414265,0.22557165439014137,0.007032032344296825,0.17060776163388838,0.007032032344296825,0.17060776163388838,0.007032032344296825,0.17060776163388838,1.5204081632653061,0.6577181208053691
3.165263479953629,0.1406063569654104,0.01207066870997344,0.7440069759871462,-0.10288416765266098,0.00705885224011253,-0.0863625434837784,0.04614303140606786,0.1406063569654104,3.165263479953629,0.1406063569654104,3.165263479953629,0.1406063569654104,3.165263479953629,0.04614303140606786,-0.0863625434837784,0.04614303140606786,-0.0863625434837784,0.04614303140606786,-0.0863625434837784,0.7440069759871462,0.01207066870997344,0.7440069759871462,0.01207066870997344,0.7440069759871462,0.01207066870997344,0.00705885224011253,-0.10288416765266098,0.00705885224011253,-0.10288416765266098,0.00705885224011253,-0.10288416765266098,1.5224489795918368,0.6568364611260054
3.2077318204389584,0.14130199706473845,-0.20012172343170717,0.7444528824267654,-0.37876153137092927,0.007062436380961303,-0.36384853246537385,0.04561422699865198,0.14130199706473845,3.2077318204389584,0.14130199706473845,3.2077318204389584,0.14130199706473845,3.2077318204389584,0.04561422699865198,-0.36384853246537385,0.04561422699865198,-0.36384853246537385,0.04561422699865198,-0.36384853246537385,0.7444528824267654,-0.20012172343170717,0.7444528824267654,-0.20012172343170717,0.7444528824267654,-0.20012172343170717,0.007062436380961303,-0.37876153137092927,0.007062436380961303,-0.37876153137092927,0.007062436380961303,-0.37876153137092927,1.5244897959183674,0.6559571619812583
3.246040850764853,0.14432694094260026,-0.4111647484390818,0.7445625405857619,-0.6585241076003587,0.007038423644059012,-0.6451828342561021,0.044946856494722826,0.14432694094260026,3.246040850764853,0.14432694094260026,3.246040850764853,0.14432694094260026,3.246040850764853,0.044946856494722826,-0.6451828342561021,0.044946856494722826,-0.6451828342561021,0.044946856494722826,-0.6451828342561021,0.7445625405857619,-0.4111647484390818,0.7445625405857619,-0.4111647484390818,0.7445625405857619,-0.4111647484390818,0.007038423644059012,-0.6585241076003587,0.007038423644059012,-0.6585241076003587,0.007038423644059012,-0.6585241076003587,1.526530612244898,0.6550802139037433
3.2732558877492903,0.1493472331811569,-0.620924230641485,0.744250176681724,-0.9431106009689689,0.006979408909640233,-0.9313489227889551,0.04409470420097029,0.1493472331811569,3.2732558877492903,0.1493472331811569,3.2732558877492903,0.1493472331811569,3.2732558877492903,0.04409470420097029,-0.9313489227889551,0.04409470420097029,-0.9313489227889551,0.04409470420097029,-0.9313489227889551,0.744250176681724,-0.620924230641485,0.744250176681724,-0.620924230641485,0.744250176681724,-0.620924230641485,0.006979408909640233,-0.9431106009689689,0.006979408909640233,-0.9431106009689689,0.006979408909640233,-0.9431106009689689,1.5285714285714287,0.6542056074766355
3.285496582378979,0.15560349136670829,-0.8291654146029681,0.7436662563654856,-1.232842482368244,0.0068765837964179675,-1.2227274212802723,0.04300531343899077,0.15560349136670829,3.285496582378979,0.15560349136670829,3.285496582378979,0.15560349136670829,3.285496582378979,0.04300531343899077,-1.2227274212802723,0.04300531343899077,-1.2227274212802723,0.04300531343899077,-1.2227274212802723,0.7436662563654856,-0.8291654146029681,0.7436662563654856,-0.8291654146029681,0.7436662563654856,-0.8291654146029681,0.0068765837964179675,-1.232842482368244,0.0068765837964179675,-1.232842482368244,0.0068765837964179675,-1.232842482368244,1.530612244897959,0.6533333333333333
3.2825286706361525,0.1622159600936006,-1.0358498873524977,0.7430298732617779,-1.527420494515987,0.006721207698301483,-1.519071795953733,0.04162912876456674,0.1622159600936006,3.2825286706361525,0.1622159600936006,3.2825286706361525,0.1622159600936006,3.2825286706361525,0.04162912876456674,-1.519071795953733,0.04162912876456674,-1.519071795953733,0.04162912876456674,-1.519071795953733,0.7430298732617779,-1.0358498873524977,0.7430298732617779,-1.0358498873524977,0.7430298732617779,-1.0358498873524977,0.006721207698301483,-1.527420494515987,0.006721207698301483,-1.527420494515987,0.006721207698301483,-1.527420494515987,1.5326530612244897,0.6524633821571239
3.266413805278383,0.16841029531963506,-1.241110375154248,0.7425867793954273,-1.8257334265472884,0.006506913120945916,-1.8193571811958924,0.039932269935858945,0.16841029531963506,3.266413805278383,0.16841029531963506,3.266413805278383,0.16841029531963506,3.266413805278383,0.039932269935858945,-1.8193571811958924,0.039932269935858945,-1.8193571811958924,0.039932269935858945,-1.8193571811958924,0.7425867793954273,-1.241110375154248,0.7425867793954273,-1.241110375154248,0.7425867793954273,-1.241110375154248,0.006506913120945916,-1.8257334265472884,0.006506913120945916,-1.8257334265472884,0.006506913120945916,-1.8257334265472884,1.5346938775510204,0.6515957446808511
3.2399271618575534,0.17361822084748185,-1.4451600349054887,0.7424574940232935,-2.1258619180539124,0.006232373734788982,-2.1217519577975494,0.03791235958816815,0.17361822084748185,3.2399271618575534,0.17361822084748185,3.2399271618575534,0.17361822084748185,3.2399271618575534,0.03791235958816815,-2.1217519577975494,0.03791235958816815,-2.1217519577975494,0.03791235958816815,-2.1217519577975494,0.7424574940232935,-1.4451600349054887,0.7424574940232935,-1.4451600349054887,0.7424574940232935,-1.4451600349054887,0.006232373734788982,-2.1258619180539124,0.006232373734788982,-2.1258619180539124,0.006232373734788982,-2.1258619180539124,1.536734693877551,0.650730411686587
3.205784801697195,0.17744121744092367,-1.6482749087120707,0.7427519954349109,-2.425185323192026,0.005903920038375626,-2.423747622205476,0.03561177596996117,0.17744121744092367,3.205784801697195,0.17744121744092367,3.205784801697195,0.17744121744092367,3.205784801697195,0.03561177596996117,-2.423747622205476,0.03561177596996117,-2.423747622205476,0.03561177596996117,-2.423747622205476,0.7427519954349109,-1.6482749087120707,0.7427519954349109,-1.6482749087120707,0.7427519954349109,-1.6482749087120707,0.005903920038375626,-2.425185323192026,0.005903920038375626,-2.425185323192026,0.005903920038375626,-2.425185323192026,1.5387755102040817,0.649867374005305
3.16634540513131,0.17959869632681968,-1.8507221863294303,0.7434809616553032,-2.720794126168701,0.005535357255288574,-2.7225426008123925,0.03311589687059774,0.17959869632681968,3.16634540513131,0.17959869632681968,3.16634540513131,0.17959869632681968,3.16634540513131,0.03311589687059774,-2.7225426008123925,0.03311589687059774,-2.7225426008123925,0.03311589687059774,-2.7225426008123925,0.7434809616553032,-1.8507221863294303,0.7434809616553032,-1.8507221863294303,0.7434809616553032,-1.8507221863294303,0.005535357255288574,-2.720794126168701,0.005535357255288574,-2.720794126168701,0.005535357255288574,-2.720794126168701,1.5408163265306123,0.6490066225165563
3.1238640145821046,0.17990126884068755,-2.0528604403539306,0.7446120658935904,-3.0098029510965936,0.00514596420421004,-3.015367329273466,0.030538313480017648,0.17990126884068755,3.1238640145821046,0.17990126884068755,3.1238640145821046,0.17990126884068755,3.1238640145821046,0.030538313480017648,-3.015367329273466,0.030538313480017648,-3.015367329273466,0.030538313480017648,-3.015367329273466,0.7446120658935904,-2.0528604403539306,0.7446120658935904,-2.0528604403539306,0.7446120658935904,-2.0528604403539306,0.00514596420421004,-3.0098029510965936,0.00514596420421004,-3.0098029510965936,0.00514596420421004,-3.0098029510965936,1.542857142857143,0.6481481481481481
3.08060681413922,0.17824273216368994,-2.2549454576874464,0.7459818364028376,-3.289580483153853,0.004757268095002399,-3.29967302265659,0.02800195422949344,0.17824273216368994,3.08060681413922,0.17824273216368994,3.08060681413922,0.17824273216368994,3.08060681413922,0.02800195422949344,-3.29967302265659,0.02800195422949344,-3.29967302265659,0.02800195422949344,-3.29967302265659,0.7459818364028376,-2.2549454576874464,0.7459818364028376,-2.2549454576874464,0.7459818364028376,-2.2549454576874464,0.004757268095002399,-3.289580483153853,0.004757268095002399,-3.289580483153853,0.004757268095002399,-3.289580483153853,1.5448979591836736,0.6472919418758256
3.039026067888777,0.1746426126544242,-2.4572130252175235,0.7473513142423488,-3.5579500044126693,0.004391816996377601,-3.5732747546670987,0.02563035294303204,0.1746426126544242,3.039026067888777,0.1746426126544242,3.039026067888777,0.1746426126544242,3.039026067888777,0.02563035294303204,-3.5732747546670987,0.02563035294303204,-3.5732747546670987,0.02563035294303204,-3.5732747546670987,0.7473513142423488,-2.4572130252175235,0.7473513142423488,-2.4572130252175235,0.7473513142423488,-2.4572130252175235,0.004391816996377601,-3.5579500044126693,0.004391816996377601,-3.5579500044126693,0.004391816996377601,-3.5579500044126693,1.5469387755102042,0.646437994722955
3.001781726565538,0.16924066713294347,-2.659652119084119,0.7484498368612835,-3.8139089209286583,0.004071637639878777,-3.8349530200243542,0.02354126967887382,0.16924066713294347,3.001781726565538,0.16924066713294347,3.001781726565538,0.16924066713294347,3.001781726565538,0.02354126967887382,-3.8349530200243542,0.02354126967887382,-3.8349530200243542,0.02354126967887382,-3.8349530200243542,0.7484498368612835,-2.659652119084119,0.7484498368612835,-2.659652119084119,0.7484498368612835,-2.659652119084119,0.004071637639878777,-3.8139089209286583,0.004071637639878777,-3.8139089209286583,0.004071637639878777,-3.8139089209286583,1.5489795918367348,0.6455862977602107
2.9716982876144646,0.16232146660358066,-2.8622220144251163,0.7490211373729277,-4.058700604148419,0.0038159804626997727,-4.08543426988294,0.021835025523440982,0.16232146660358066,2.9716982876144646,0.16232146660358066,2.9716982876144646,0.16232146660358066,2.9716982876144646,0.021835025523440982,-4.08543426988294,0.021835025523440982,-4.08543426988294,0.021835025523440982,-4.08543426988294,0.7490211373729277,-2.8622220144251163,0.7490211373729277,-2.8622220144251163,0.7490211373729277,-2.8622220144251163,0.0038159804626997727,-4.058700604148419,0.0038159804626997727,-4.058700604148419,0.0038159804626997727,-4.058700604148419,1.5510204081632653,0.6447368421052632
2.951886230201034,0.15428728231676703,-3.0647219259305953,0.748902643160352,-4.296397258185601,0.003636855108102533,-4.328055362791202,0.020573366214007047,0.15428728231676703,2.951886230201034,0.15428728231676703,2.951886230201034,0.15428728231676703,2.951886230201034,0.020573366214007047,-4.328055362791202,0.020573366214007047,-4.328055362791202,0.020573366214007047,-4.328055362791202,0.748902643160352,-3.0647219259305953,0.748902643160352,-3.0647219259305953,0.748902643160352,-3.0647219259305953,0.003636855108102533,-4.296397258185601,0.003636855108102533,-4.296397258185601,0.003636855108102533,-4.296397258185601,1.5530612244897959,0.6438896189224704
2.945537524998931,0.1456685356582105,-3.267053853357924,0.7479194538695415,-4.533009897064507,0.003537152230162885,-4.56813660749685,0.01976888610022589,0.1456685356582105,2.945537524998931,0.1456685356582105,2.945537524998931,0.1456685356582105,2.945537524998931,0.01976888610022589,-4.56813660749685,0.01976888610022589,-4.56813660749685,0.01976888610022589,-4.56813660749685,0.7479194538695415,-3.267053853357924,0.7479194538695415,-3.267053853357924,0.7479194538695415,-3.267053853357924,0.003537152230162885,-4.533009897064507,0.003537152230162885,-4.533009897064507,0.003537152230162885,-4.533009897064507,1.5551020408163265,0.6430446194225722
2.955838981811514,0.13712427518572562,-3.4690501660749913,0.7459653696766513,-4.774443078514652,0.0035119155517037127,-4.811267055587809,0.019391935417694055,0.13712427518572562,2.955838981811514,0.13712427518572562,2.955838981811514,0.13712427518572562,2.955838981811514,0.019391935417694055,-4.811267055587809,0.019391935417694055,-4.811267055587809,0.019391935417694055,-4.811267055587809,0.7459653696766513,-3.4690501660749913,0.7459653696766513,-3.4690501660749913,0.7459653696766513,-3.4690501660749913,0.0035119155517037127,-4.774443078514652,0.0035119155517037127,-4.774443078514652,0.0035119155517037127,-4.774443078514652,1.5571428571428572,0.6422018348623854
