s11a,s11m,s31a,s31m,s41a,s41m,s21a,s21m,s22m,s22a,s33m,s33a,s44m,s44a,s12m,s12a,s34m,s34a,s43m,s43a,s13m,s13a,s24m,s24a,s42m,s42a,s14m,s14a,s23m,s23a,s32m,s32a,wavelengths,freqs
1.1048955367609221,0.03671836618569431,-1.5367513843261533,0.38994648752018257,-2.6021189222503778,0.024869048470012433,-2.602166356007003,0.03223867213375029,0.03671836618569431,1.1048955367609221,0.03671836618569431,1.1048955367609221,0.03671836618569431,1.1048955367609221,0.03223867213375029,-2.602166356007003,0.03223867213375029,-2.602166356007003,0.03223867213375029,-2.602166356007003,0.38994648752018257,-1.5367513843261533,0.38994648752018257,-1.5367513843261533,0.38994648752018257,-1.5367513843261533,0.024869048470012433,-2.6021189222503778,0.024869048470012433,-2.6021189222503778,0.024869048470012433,-2.6021189222503778,1.5,0.6666666666666666
0.36566122193231243,0.03061145004324364,-1.7002576401949887,0.38498287147955357,-2.8180777716655423,0.024963773967261103,-2.8181333176786496,0.03233253925558107,0.03061145004324364,0.36566122193231243,0.03061145004324364,0.36566122193231243,0.03061145004324364,0.36566122193231243,0.03233253925558107,-2.8181333176786496,0.03233253925558107,-2.8181333176786496,0.03233253925558107,-2.8181333176786496,0.38498287147955357,-1.7002576401949887,0.38498287147955357,-1.7002576401949887,0.38498287147955357,-1.7002576401949887,0.024963773967261103,-2.8180777716655423,0.024963773967261103,-2.8180777716655423,0.024963773967261103,-2.8180777716655423,1.5020408163265306,0.6657608695652174
-0.43073531746051563,0.03529125248862993,-1.8608076814945198,0.38047856465392693,-3.037630503357914,0.025028962539291762,-3.0376952756168283,0.03238826192559916,0.03529125248862993,-0.43073531746051563,0.03529125248862993,-0.43073531746051563,0.03529125248862993,-0.43073531746051563,0.03238826192559916,-3.0376952756168283,0.03238826192559916,-3.0376952756168283,0.03238826192559916,-3.0376952756168283,0.38047856465392693,-1.8608076814945198,0.38047856465392693,-1.8608076814945198,0.38047856465392693,-1.8608076814945198,0.025028962539291762,-3.037630503357914,0.025028962539291762,-3.037630503357914,0.025028962539291762,-3.037630503357914,1.5040816326530613,0.6648575305291723
-1.0064785598116945,0.04842338479559393,-2.0192715422028202,0.3765727521452952,-3.260867854359637,0.024960068949761643,-3.2609454473793593,0.03227074255571852,0.04842338479559393,-1.0064785598116945,0.04842338479559393,-1.0064785598116945,0.04842338479559393,-1.0064785598116945,0.03227074255571852,-3.2609454473793593,0.03227074255571852,-3.2609454473793593,0.03227074255571852,-3.2609454473793593,0.3765727521452952,-2.0192715422028202,0.3765727521452952,-2.0192715422028202,0.3765727521452952,-2.0192715422028202,0.024960068949761643,-3.260867854359637,0.024960068949761643,-3.260867854359637,0.024960068949761643,-3.260867854359637,1.506122448979592,0.6639566395663956
-1.41070221179308,0.06494985250040095,-2.1765486980304307,0.3732127432822138,-3.4849390784628578,0.024657595305695727,-3.4850342170709356,0.03185184403705429,0.06494985250040095,-1.41070221179308,0.06494985250040095,-1.41070221179308,0.06494985250040095,-1.41070221179308,0.03185184403705429,-3.4850342170709356,0.03185184403705429,-3.4850342170709356,0.03185184403705429,-3.4850342170709356,0.3732127432822138,-2.1765486980304307,0.3732127432822138,-2.1765486980304307,0.3732127432822138,-2.1765486980304307,0.024657595305695727,-3.4849390784628578,0.024657595305695727,-3.4849390784628578,0.024657595305695727,-3.4849390784628578,1.5081632653061225,0.6630581867388362
-1.7306694064189112,0.08229157663232732,-2.3332171266457604,0.370163658646856,-3.7040957313902383,0.024081324804977492,-3.7042134016827415,0.03108035159137769,0.08229157663232732,-1.7306694064189112,0.08229157663232732,-1.7306694064189112,0.08229157663232732,-1.7306694064189112,0.03108035159137769,-3.7042134016827415,0.03108035159137769,-3.7042134016827415,0.03108035159137769,-3.7042134016827415,0.370163658646856,-2.3332171266457604,0.370163658646856,-2.3332171266457604,0.370163658646856,-2.3332171266457604,0.024081324804977492,-3.7040957313902383,0.024081324804977492,-3.7040957313902383,0.024081324804977492,-3.7040957313902383,1.510204081632653,0.6621621621621622
-2.0088948920205585,0.09926347809224759,-2.4892037221150756,0.36712911970198475,-3.9110550964105193,0.023298054256012325,-3.911197801693983,0.030043208937876202,0.09926347809224759,-2.0088948920205585,0.09926347809224759,-2.0088948920205585,0.09926347809224759,-2.0088948920205585,0.030043208937876202,-3.911197801693983,0.030043208937876202,-3.911197801693983,0.030043208937876202,-3.911197801693983,0.36712911970198475,-2.4892037221150756,0.36712911970198475,-2.4892037221150756,0.36712911970198475,-2.4892037221150756,0.023298054256012325,-3.9110550964105193,0.023298054256012325,-3.9110550964105193,0.023298054256012325,-3.9110550964105193,1.5122448979591836,0.6612685560053981
-2.265327056875356,0.11520744837783102,-2.6437210867027763,0.3639619088721424,-4.0998932171105995,0.022491253086451557,-4.100058268031449,0.028977451003885605,0.11520744837783102,-2.265327056875356,0.11520744837783102,-2.265327056875356,0.11520744837783102,-2.265327056875356,0.028977451003885605,-4.100058268031449,0.028977451003885605,-4.100058268031449,0.028977451003885605,-4.100058268031449,0.3639619088721424,-2.6437210867027763,0.3639619088721424,-2.6437210867027763,0.3639619088721424,-2.6437210867027763,0.022491253086451557,-4.0998932171105995,0.022491253086451557,-4.0998932171105995,0.022491253086451557,-4.0998932171105995,1.5142857142857142,0.6603773584905661
-2.5107429881218457,0.12971262940173733,-2.7958112087152633,0.3608794106640688,-4.269939465589145,0.021910564439303903,-4.270117681732526,0.02820457078776666,0.12971262940173733,-2.5107429881218457,0.12971262940173733,-2.5107429881218457,0.12971262940173733,-2.5107429881218457,0.02820457078776666,-4.270117681732526,0.02820457078776666,-4.270117681732526,0.02820457078776666,-4.270117681732526,0.3608794106640688,-2.7958112087152633,0.3608794106640688,-2.7958112087152633,0.3608794106640688,-2.7958112087152633,0.021910564439303903,-4.269939465589145,0.021910564439303903,-4.269939465589145,0.021910564439303903,-4.269939465589145,1.5163265306122449,0.6594885598923285
-2.752498447539186,0.14242013861640626,-2.9454150505627474,0.3583666690786324,-4.428317100890199,0.021774658234424003,-4.428494280271157,0.028005241066959133,0.14242013861640626,-2.752498447539186,0.14242013861640626,-2.752498447539186,0.14242013861640626,-2.752498447539186,0.028005241066959133,-4.428494280271157,0.028005241066959133,-4.428494280271157,0.028005241066959133,-4.428494280271157,0.3583666690786324,-2.9454150505627474,0.3583666690786324,-2.9454150505627474,0.3583666690786324,-2.9454150505627474,0.021774658234424003,-4.428317100890199,0.021774658234424003,-4.428317100890199,0.021774658234424003,-4.428317100890199,1.5183673469387755,0.6586021505376344
-2.9957270564568845,0.15279517596072972,-3.093570931866261,0.3567367793543341,-4.588250527274726,0.022179892284977788,-4.58841441618684,0.028502058087761992,0.15279517596072972,-2.9957270564568845,0.15279517596072972,-2.9957270564568845,0.15279517596072972,-2.9957270564568845,0.028502058087761992,-4.58841441618684,0.028502058087761992,-4.58841441618684,0.028502058087761992,-4.58841441618684,0.3567367793543341,-3.093570931866261,0.3567367793543341,-3.093570931866261,0.3567367793543341,-3.093570931866261,0.022179892284977788,-4.588250527274726,0.022179892284977788,-4.588250527274726,0.022179892284977788,-4.588250527274726,1.5204081632653061,0.6577181208053691
-3.242773363595079,0.16020066200292155,-3.241393723309717,0.35596837141560445,-4.7633181109541365,0.02306107955784885,-4.763464095927523,0.029609707033457628,0.16020066200292155,-3.242773363595079,0.16020066200292155,-3.242773363595079,0.16020066200292155,-3.242773363595079,0.029609707033457628,-4.763464095927523,0.029609707033457628,-4.763464095927523,0.029609707033457628,-4.763464095927523,0.35596837141560445,-3.241393723309717,0.35596837141560445,-3.241393723309717,0.35596837141560445,-3.241393723309717,0.02306107955784885,-4.7633181109541365,0.02306107955784885,-4.7633181109541365,0.02306107955784885,-4.7633181109541365,1.5224489795918368,0.6568364611260054
-3.4940106062518153,0.16422823009855694,-3.389590738957745,0.3559493893696595,-4.961779179130711,0.0242155678569992,-4.961910217313291,0.03106670299107861,0.16422823009855694,-3.4940106062518153,0.16422823009855694,-3.4940106062518153,0.16422823009855694,-3.4940106062518153,0.03106670299107861,-4.961910217313291,0.03106670299107861,-4.961910217313291,0.03106670299107861,-4.961910217313291,0.3559493893696595,-3.389590738957745,0.3559493893696595,-3.389590738957745,0.3559493893696595,-3.389590738957745,0.0242155678569992,-4.961779179130711,0.0242155678569992,-4.961779179130711,0.0242155678569992,-4.961779179130711,1.5244897959183674,0.6559571619812583
-3.749492872830499,0.16485067391571395,-3.5388725099805725,0.3565666397197173,-5.184634508304344,0.02536978532982452,-5.184757804856992,0.03252142600306644,0.16485067391571395,-3.749492872830499,0.16485067391571395,-3.749492872830499,0.16485067391571395,-3.749492872830499,0.03252142600306644,-5.184757804856992,0.03252142600306644,-5.184757804856992,0.03252142600306644,-5.184757804856992,0.3565666397197173,-3.5388725099805725,0.3565666397197173,-3.5388725099805725,0.3565666397197173,-3.5388725099805725,0.02536978532982452,-5.184634508304344,0.02536978532982452,-5.184634508304344,0.02536978532982452,-5.184634508304344,1.526530612244898,0.6550802139037433
-4.0096809374732025,0.1623703907486978,-3.6900096147684756,0.357565681122822,-5.426954780763394,0.026262391881215714,-5.427077737716961,0.033639030250834,0.1623703907486978,-4.0096809374732025,0.1623703907486978,-4.0096809374732025,0.1623703907486978,-4.0096809374732025,0.033639030250834,-5.427077737716961,0.033639030250834,-5.427077737716961,0.033639030250834,-5.427077737716961,0.357565681122822,-3.6900096147684756,0.357565681122822,-3.6900096147684756,0.357565681122822,-3.6900096147684756,0.026262391881215714,-5.426954780763394,0.026262391881215714,-5.426954780763394,0.026262391881215714,-5.426954780763394,1.5285714285714287,0.6542056074766355
-4.275611371739913,0.15736631289331024,-3.8433728546188584,0.3585073409765446,-5.680528501984534,0.026728709296307714,-5.680656999405813,0.03420947685223617,0.15736631289331024,-4.275611371739913,0.15736631289331024,-4.275611371739913,0.15736631289331024,-4.275611371739913,0.03420947685223617,-5.680656999405813,0.03420947685223617,-5.680656999405813,0.03420947685223617,-5.680656999405813,0.3585073409765446,-3.8433728546188584,0.3585073409765446,-3.8433728546188584,0.3585073409765446,-3.8433728546188584,0.026728709296307714,-5.680528501984534,0.026728709296307714,-5.680528501984534,0.026728709296307714,-5.680528501984534,1.530612244897959,0.6533333333333333
-4.549169740673584,0.15062122662059463,-3.9985604374941217,0.35890195334335434,-5.937000552882727,0.026753753657790123,-5.937138746268816,0.03421484038696801,0.15062122662059463,-4.549169740673584,0.15062122662059463,-4.549169740673584,0.15062122662059463,-4.549169740673584,0.03421484038696801,-5.937138746268816,0.03421484038696801,-5.937138746268816,0.03421484038696801,-5.937138746268816,0.35890195334335434,-3.9985604374941217,0.35890195334335434,-3.9985604374941217,0.35890195334335434,-3.9985604374941217,0.026753753657790123,-5.937000552882727,0.026753753657790123,-5.937000552882727,0.026753753657790123,-5.937000552882727,1.5326530612244897,0.6524633821571239
-4.833075920658057,0.1430063037527578,-4.154460236650746,0.3584185371356386,-6.190842058377903,0.026452871272300737,-6.190992262853049,0.033803816035301075,0.1430063037527578,-4.833075920658057,0.1430063037527578,-4.833075920658057,0.1430063037527578,-4.833075920658057,0.033803816035301075,-6.190992262853049,0.033803816035301075,-6.190992262853049,0.033803816035301075,-6.190992262853049,0.3584185371356386,-4.154460236650746,0.3584185371356386,-4.154460236650746,0.3584185371356386,-4.154460236650746,0.026452871272300737,-6.190842058377903,0.026452871272300737,-6.190842058377903,0.026452871272300737,-6.190842058377903,1.5346938775510204,0.6515957446808511
-5.130285131769489,0.1353958181196437,-4.309718737307237,0.3570041585271334,-6.440984899359856,0.025984815579076278,-6.441148293782381,0.03318007964511911,0.1353958181196437,-5.130285131769489,0.1353958181196437,-5.130285131769489,0.1353958181196437,-5.130285131769489,0.03318007964511911,-6.441148293782381,0.03318007964511911,-6.441148293782381,0.03318007964511911,-6.441148293782381,0.3570041585271334,-4.309718737307237,0.3570041585271334,-4.309718737307237,0.3570041585271334,-4.309718737307237,0.025984815579076278,-6.440984899359856,0.025984815579076278,-6.440984899359856,0.025984815579076278,-6.440984899359856,1.536734693877551,0.650730411686587
-5.442882920921663,0.1286291202949508,-4.463190715703854,0.3548451712811551,-6.6901782637025,0.02545526649892507,-6.690355383932208,0.03247894735729595,0.1286291202949508,-5.442882920921663,0.1286291202949508,-5.442882920921663,0.1286291202949508,-5.442882920921663,0.03247894735729595,-6.690355383932208,0.03247894735729595,-6.690355383932208,0.03247894735729595,-6.690355383932208,0.3548451712811551,-4.463190715703854,0.3548451712811551,-4.463190715703854,0.3548451712811551,-4.463190715703854,0.02545526649892507,-6.6901782637025,0.02545526649892507,-6.6901782637025,0.02545526649892507,-6.6901782637025,1.5387755102040817,0.649867374005305
-5.770703457907152,0.12347829443234727,-4.614147896319029,0.3522766802063125,-6.94238592474467,0.024871972038207,-6.942576635322064,0.031710460732768446,0.12347829443234727,-5.770703457907152,0.12347829443234727,-5.770703457907152,0.12347829443234727,-5.770703457907152,0.031710460732768446,-6.942576635322064,0.031710460732768446,-6.942576635322064,0.031710460732768446,-6.942576635322064,0.3522766802063125,-4.614147896319029,0.3522766802063125,-4.614147896319029,0.3522766802063125,-4.614147896319029,0.024871972038207,-6.94238592474467,0.024871972038207,-6.94238592474467,0.024871972038207,-6.94238592474467,1.5408163265306123,0.6490066225165563
-6.110248266207885,0.12056393613874669,-4.762401393409741,0.3496991814461136,-7.199936362437576,0.02416891431289202,-7.200140195467956,0.03079065112154366,0.12056393613874669,-6.110248266207885,0.12056393613874669,-6.110248266207885,0.12056393613874669,-6.110248266207885,0.03079065112154366,-7.200140195467956,0.03079065112154366,-7.200140195467956,0.03079065112154366,-7.200140195467956,0.3496991814461136,-4.762401393409741,0.3496991814461136,-4.762401393409741,0.3496991814461136,-4.762401393409741,0.02416891431289202,-7.199936362437576,0.02416891431289202,-7.199936362437576,0.02416891431289202,-7.199936362437576,1.542857142857143,0.6481481481481481
-6.454678039701282,0.12021343143738679,-4.908371345212112,0.34747572461115617,-7.462162356432154,0.023270384047715358,-7.462378279722235,0.029623455276655258,0.12021343143738679,-6.454678039701282,0.12021343143738679,-6.454678039701282,0.12021343143738679,-6.454678039701282,0.029623455276655258,-7.462378279722235,0.029623455276655258,-7.462378279722235,0.029623455276655258,-7.462378279722235,0.34747572461115617,-4.908371345212112,0.34747572461115617,-4.908371345212112,0.34747572461115617,-4.908371345212112,0.023270384047715358,-7.462162356432154,0.023270384047715358,-7.462162356432154,0.023270384047715358,-7.462162356432154,1.5448979591836736,0.6472919418758256
-6.795404168802515,0.12235265144190464,-5.052985341243856,0.345815415107489,-7.725994299550558,0.022148265756165967,-7.726220414567068,0.02817365348695355,0.12235265144190464,-6.795404168802515,0.12235265144190464,-6.795404168802515,0.12235265144190464,-6.795404168802515,0.02817365348695355,-7.726220414567068,0.02817365348695355,-7.726220414567068,0.02817365348695355,-7.726220414567068,0.345815415107489,-5.052985341243856,0.345815415107489,-5.052985341243856,0.345815415107489,-5.052985341243856,0.022148265756165967,-7.725994299550558,0.022148265756165967,-7.725994299550558,0.022148265756165967,-7.725994299550558,1.5469387755102042,0.646437994722955
-7.124693198853456,0.12652028031425175,-5.197341331259795,0.34469653017981455,-7.987671136050841,0.02083845501100048,-7.987905016708273,0.026487499421691155,0.12652028031425175,-7.124693198853456,0.12652028031425175,-7.124693198853456,0.12652028031425175,-7.124693198853456,0.026487499421691155,-7.987905016708273,0.026487499421691155,-7.987905016708273,0.026487499421691155,-7.987905016708273,0.34469653017981455,-5.197341331259795,0.34469653017981455,-5.197341331259795,0.34469653017981455,-5.197341331259795,0.02083845501100048,-7.987671136050841,0.02083845501100048,-7.987671136050841,0.02083845501100048,-7.987671136050841,1.5489795918367348,0.6455862977602107
-7.43760190957077,0.13200160320849744,-5.342282136273788,0.34388886642408734,-8.244243796196706,0.019417180748953003,-8.244482367195186,0.02466233217013517,0.13200160320849744,-7.43760190957077,0.13200160320849744,-7.43760190957077,0.13200160320849744,-7.43760190957077,0.02466233217013517,-8.244482367195186,0.02466233217013517,-8.244482367195186,0.02466233217013517,-8.244482367195186,0.34388886642408734,-5.342282136273788,0.34388886642408734,-5.342282136273788,0.34388886642408734,-5.342282136273788,0.019417180748953003,-8.244243796196706,0.019417180748953003,-8.244243796196706,0.019417180748953003,-8.244243796196706,1.5510204081632653,0.6447368421052632
-7.732292715187272,0.13800785879752356,-5.4881489012048625,0.34305121178097703,-8.494155088393587,0.01796647727966271,-8.494394688882146,0.022802577775071383,0.13800785879752356,-7.732292715187272,0.13800785879752356,-7.732292715187272,0.13800785879752356,-7.732292715187272,0.022802577775071383,-8.494394688882146,0.022802577775071383,-8.494394688882146,0.022802577775071383,-8.494394688882146,0.34305121178097703,-5.4881489012048625,0.34305121178097703,-5.4881489012048625,0.34305121178097703,-5.4881489012048625,0.01796647727966271,-8.494155088393587,0.01796647727966271,-8.494155088393587,0.01796647727966271,-8.494155088393587,1.5530612244897959,0.6438896189224704
-8.009264871380555,0.14381877081830066,-5.634744057754892,0.34182663598106205,-8.73711293421587,0.016551898887515827,-8.737349877600497,0.02099144516022867,0.14381877081830066,-8.009264871380555,0.14381877081830066,-8.009264871380555,0.14381877081830066,-8.009264871380555,0.02099144516022867,-8.737349877600497,0.02099144516022867,-8.737349877600497,0.02099144516022867,-8.737349877600497,0.34182663598106205,-5.634744057754892,0.34182663598106205,-5.634744057754892,0.34182663598106205,-5.634744057754892,0.016551898887515827,-8.73711293421587,0.016551898887515827,-8.73711293421587,0.016551898887515827,-8.73711293421587,1.5551020408163265,0.6430446194225722
-8.270376256453561,0.14885132667669795,-5.781372917930387,0.3399148993810821,-8.97367805717995,0.015215316498271356,-8.973908464296183,0.019281876055701946,0.14885132667669795,-8.270376256453561,0.14885132667669795,-8.270376256453561,0.14885132667669795,-8.270376256453561,0.019281876055701946,-8.973908464296183,0.019281876055701946,-8.973908464296183,0.019281876055701946,-8.973908464296183,0.3399148993810821,-5.781372917930387,0.3399148993810821,-5.781372917930387,0.3399148993810821,-5.781372917930387,0.015215316498271356,-8.97367805717995,0.015215316498271356,-8.97367805717995,0.015215316498271356,-8.97367805717995,1.5571428571428572,0.6422018348623854
