s11a,s11m,s21a,s21m,s12a,s12m,s22a,s22m,wavelengths,freqs
-3.0052000900559777,0.030256737609094718,-2.7048796618490325,1.000203942077855,-2.705010944789261,1.0004266486695381,-2.747572530287799,0.03150528390325148,1.5,0.6666666666666666
-2.99901900657695,0.030489712914215664,-2.739570756924691,1.0001933594899892,-2.739703122950111,1.0003946244867075,-2.7494997258461886,0.03234807943045933,1.5020408163265306,0.6657608695652174
-2.9937238078320956,0.030735460871077078,-2.774161404416856,1.0001823686970326,-2.7742932637098874,1.0003624257944006,-2.753367759435333,0.033180334008245715,1.5040816326530613,0.6648575305291723
-2.989320649354678,0.030991802015933576,-2.8086520257352814,1.0001710333962985,-2.8087818239290816,1.000330227238504,-2.75900239727499,0.03399803108698315,1.506122448979592,0.6639566395663956
-2.985808514756392,0.03125658364701675,-2.84304304427925,1.0001594182563989,-2.8431692698653444,1.0002982007065349,-2.766243524298577,0.03479756093265737,1.5081632653061225,0.6630581867388362
-2.9831800391237833,0.031527693263606014,-2.877334885624763,1.0001475877455666,-2.877456077052742,1.0002665133830353,-2.774944683977049,0.035575676350536094,1.510204081632653,0.6621621621621622
-2.981422322239523,0.03180306988508714,-2.911527977274133,1.000135606704282,-2.9116427297020535,1.0002353282614784,-2.784972316934269,0.03632945346397172,1.5122448979591836,0.6612685560053981
-2.980517710423951,0.03208071342547569,-2.945622748687811,1.0001235396435866,-2.94572972034052,1.0002048028568014,-2.796204834310693,0.037056257415341215,1.5142857142857142,0.6603773584905661
-2.9804445314699763,0.03235869231871299,-2.9796196311880854,1.000111450580749,-2.979717549281214,1.000175088694392,-2.8085316188951293,0.037753712677614175,1.5163265306122449,0.6594885598923285
-2.9811777721885253,0.03263514960047067,-3.013519057885298,1.0000994027989076,-3.013606724080876,1.0001463307219276,-2.821852015814997,0.03841967757460591,1.5183673469387755,0.6586021505376344
-2.9826896924337793,0.03290830765435496,-3.0473214636092067,1.000087458605877,-3.0473977589783123,1.0001186667598074,-2.8360743523302,0.03905222257182896,1.5204081632653061,0.6577181208053691
-2.9849503731018148,0.03317647182466059,-3.081027284841442,1.000075679080936,-3.0810911743184373,1.0000922269801482,-2.85111501067595,0.039649611891082126,1.5224489795918368,0.6568364611260054
-2.987928198507325,0.03343803308438357,-3.1146369596392836,1.0000641238038168,-3.1146874959590534,1.0000671334066602,-2.86689756710776,0.040210288012851744,1.5244897959183674,0.6559571619812583
-2.9915902757175212,0.03369146992710411,-3.148150927538656,1.0000528505657909,-3.1481872546527394,1.0000434994319016,-2.8833520029112414,0.040732858652120396,1.526530612244898,0.6550802139037433
-2.9959027949485613,0.033935349626290356,-3.1815696294256255,1.0000419150696753,-3.181590985395217,1.0000214293555787,-2.9004139881955346,0.04121608582185375,1.5285714285714287,0.6542056074766355
-3.0008313360147727,0.034168328978327535,-3.2148935073697467,1.0000313706305772,-3.2148992267336216,1.0000010179542569,-2.918024236037244,0.041658876630894466,1.530612244897959,0.6533333333333333
-3.006341126205266,0.034389154618989996,-3.248123004418873,1.000021267891158,-3.248112520034189,0.9999823500946993,-2.936127922548765,0.04206027550669579,1.5326530612244897,0.6524633821571239
-3.012397254942353,0.03459666297988797,-3.281258564361387,1.0000116545639217,-3.2812314087143593,0.9999655004042127,-2.954674167334818,0.04241945757156126,1.5346938775510204,0.6515957446808511
-3.0189648502828357,0.03478977993316971,-3.3143006314661037,1.0000025752087705,-3.3142564374491084,0.9999505330076469,-2.9736155683324323,0.04273572294448078,1.536734693877551,0.650730411686587
-3.0260092218875627,0.03496752016055075,-3.347249650212058,0.9999940710483376,-3.347188151363732,0.9999375013361461,-2.992907785011414,0.04300849177924584,1.5387755102040817,0.649867374005305
-3.033495974596014,0.035128986275454216,-3.3801060650191,0.9999861798179097,-3.380027095224942,0.999926448007834,-3.0125091641659205,0.04323729988318279,1.5408163265306123,0.6490066225165563
-3.0413910962827666,0.035273367723973416,-3.4128703199859127,0.9999789356426791,-3.412773812639223,0.999917404777202,-3.0323804029406016,0.04342179478878574,1.542857142857143,0.6481481481481481
-3.0496610232658656,0.035399939489367704,-3.4455428586374155,0.9999723689336939,-3.445428845264483,0.999910392548515,-3.0524842441831006,0.04356173217200697,1.5448979591836736,0.6472919418758256
-3.0582726861995786,0.035508060623887346,-3.4781241236777345,0.9999665062955839,-3.477992732037366,0.999905421449316,-3.0727851996408537,0.04365697252757251,1.5469387755102042,0.646437994722955
-3.0671935390919636,0.03559717263225579,-3.510614556742644,0.9999613704422393,-3.5104660084175414,0.9999024909622258,-3.093249296869038,0.04370747802497566,1.5489795918367348,0.6455862977602107
-3.0763915738176664,0.03566679772578513,-3.5430145981432846,0.9999569801231745,-3.542849205650127,0.9999015901154039,-3.1138438459842503,0.04371330948113119,1.5510204081632653,0.6447368421052632
-3.0858353222306087,0.035716536966658385,-3.5753246865963724,0.9999533500660598,-3.5751428500492746,0.9999026977338142,-3.1345372225854478,0.04367462339747937,1.5530612244897959,0.6438896189224704
-3.0954938477009075,0.03574606831720174,-3.6075452589398056,0.9999504909445017,-3.607347462308938,0.9999057827524218,-3.1552986633187308,0.043591669025578525,1.5551020408163265,0.6430446194225722
-3.105336727600857,0.03575514460479633,-3.6396767498373293,0.9999484093812333,-3.6394635568479603,0.9999108045923211,-3.176098070657191,0.043464785436135994,1.5571428571428572,0.6422018348623854
-3.11533402798072,0.035743591415470385,-3.6717195914815357,0.9999471079925167,-3.6714916411989593,0.9999177135956863,-3.196905823626154,0.04329439858780294,1.5591836734693878,0.6413612565445026
-3.1254562714009326,0.035711304928485524,-3.7036742133070972,0.99994658547568,-3.703432215448784,0.9999264515137465,-3.2176925913170886,0.04308101840278712,1.5612244897959184,0.6405228758169934
-3.1356743986608717,0.03565824970498987,-3.7355410417253077,0.9999468367370056,-3.735285771736355,0.9999369520385262,-3.238429146203616,0.04282523587141239,1.563265306122449,0.639686684073107
-3.1459597250124163,0.035584456451322646,-3.7673204998901144,0.9999478530499586,-3.7670527938105227,0.9999491413679914,-3.259086174414235,0.04252772021648202,1.5653061224489797,0.6388526727509778
-3.156283891350098,0.03549001977729843,-3.79901300749935,0.9999496222325103,-3.7987337566471084,0.9999629387945201,-3.279634080233227,0.042189216153947016,1.5673469387755103,0.6380208333333333
-3.166618810857776,0.03537509597604093,-3.830618980630196,0.999952128830457,-3.830329126121265,0.9999782573091076,-3.3000427821458618,0.04181054128818816,1.569387755102041,0.6371911573472041
-3.1769366116074305,0.035239900848975624,-3.8621388316019245,0.9999553542971118,-3.861839358731434,0.9999950042150875,-3.3202814976949884,0.041392583679443255,1.5714285714285714,0.6363636363636364
-3.1872095756811,0.035084707603172095,-3.8935729688559912,0.9999592771632806,-3.8932649013697804,1.0000130817492696,-3.340318514248059,0.04093629961918539,1.573469387755102,0.6355382619974059
-3.1974100754324746,0.03490984484175678,-3.924921796842668,0.9999638731980074,-3.924606191137138,1.0000323877088182,-3.360120942482299,0.04044271164797812,1.5755102040816327,0.6347150259067358
-3.207510507560551,0.0347156946657305,-3.9561857159057223,0.9999691155652809,-3.9558636552017705,1.0000528160829885,-3.3796544489887883,0.03991290685142163,1.5775510204081633,0.6338939197930142
-3.217483225681826,0.03450269090025105,-3.9873651221611204,0.999974974985481,-3.987037710703152,1.0000742576875927,-3.398882963886387,0.03934803547366347,1.579591836734694,0.6330749354005167
-3.227300472085397,0.03427131745418583,-4.018460407371487,0.9999814199109215,-4.0181287647025,1.0000966007980032,-3.4177683587529955,0.038749309895314006,1.5816326530612246,0.632258064516129
-3.236934309337817,0.03402210681857912,-4.049471958823289,0.9999884167225139,-4.04913721418101,1.0001197317744028,-3.436270089541207,0.03811800403262957,1.5836734693877552,0.6314432989690721
-3.246356552397342,0.03375563870736346,-4.080400159217026,0.9999959299499861,-4.08006344608439,1.000143535671721,-3.4543447984619178,0.03745545322625286,1.5857142857142859,0.6306306306306306
-3.2555387019334034,0.03347253884501082,-4.111245386581615,1.000003922511667,-4.1109078374097425,1.0001678968262648,-3.4719458681203976,0.036763054702185355,1.5877551020408165,0.6298200514138816
-3.264451879615666,0.03317347790279413,-4.14200801422111,1.0000123559652985,-4.141670755327819,1.0001926994136114,-3.4890229203983854,0.036042268696927095,1.5897959183673471,0.6290115532734274
-3.273066766312331,0.032859170590087104,-4.172688410697638,1.0000211907563492,-4.172352557332658,1.0002178279741274,-3.505521251806027,0.03529462035512862,1.5918367346938775,0.6282051282051282
-3.2813535443566635,0.03253037490357208,-4.203286939847242,1.0000303864506155,-4.202953591410216,1.0002431679069064,-3.5213811961256765,0.03452170251745539,1.5938775510204082,0.6274007682458387
-3.289281845341349,0.03218789153695084,-4.23380396081979,1.0000399019398456,-4.233474196219957,1.0002686059354815,-3.5365374042607347,0.03372517953179959,1.5959183673469388,0.6265984654731458
-3.296820705253605,0.031832563449865424,-4.264239828129504,1.00004969561468,-4.263914701286396,1.000294030550661,-3.550918030285371,0.032906792238083606,1.5979591836734695,0.6257982120051085
-3.303938529139095,0.03146527558867758,-4.294594891701438,1.0000597255064085,-4.294275427201487,1.0003193324354915,-3.5644438118969366,0.03206836429983727,1.6,0.625
