s11a,s11m,s12a,s12m,s21a,s21m,s22a,s22m,wavelengths,freqs
2.89332581716384,0.02822549711115673,1.3764982577637546,1.2967895018801132,1.3765217659020634,1.2971025690745337,2.8263193842867023,0.023264045662064657,1.5,0.6666666666666666
2.925592494605392,0.02659635451914752,1.2772076107972468,1.2957242806753193,1.2771984621659618,1.2960358455956271,2.910032418503308,0.021352036138642026,1.5020408163265306,0.6657608695652174
2.9729003300952526,0.025236336057926342,1.1781945240317113,1.2946543576287062,1.1781536924493599,1.2949559344115706,3.0221837094193935,0.0200901938929665,1.5040816326530613,0.6648575305291723
3.0337398147273418,0.024237616857667038,1.0794596844776327,1.2935781490783742,1.0793894473067953,1.2938617635925063,3.1518137739104612,0.019637912329706336,1.506122448979592,0.6639566395663956
3.1042213300528494,0.023674352828545797,0.9810039572832735,1.2924946384276423,0.9809077762664691,1.2927531516107897,3.2804133465418093,0.02004651143023306,1.5081632653061225,0.6630581867388362
3.178316258855368,0.023586351602223884,0.8828282921479659,1.2914033920277703,0.8827106487665447,1.2916307781566319,3.3901061788938294,0.021230438634751762,1.510204081632653,0.6621621621621622
3.249134197471753,0.023968270475100147,0.7849336325788073,1.29030455071509,0.7847998268490262,1.2904961214524162,3.471190074484696,0.023009913732038725,1.5122448979591836,0.6612685560053981
3.3106880957300837,0.02477093507504005,0.6873208311343989,1.2891987998648506,0.6871767534725401,1.2893513678127313,3.522606543162603,0.025181939377160466,1.5142857142857142,0.6603773584905661
3.359142077324583,0.025914234654258402,0.589990573001122,1.288087321117396,0.5898424590611394,1.2881992993363964,3.548087745799314,0.027566853535436062,1.5163265306122449,0.6594885598923285
3.3930199995506434,0.02730434347219173,0.49294330959280347,1.286971728937109,0.49279748790774286,1.2870431653938876,3.5527019414749974,0.03002229290188478,1.5183673469387755,0.6586021505376344
3.4126478160079565,0.028847924776828546,0.39617920338721563,1.2858539950175145,0.396041845315873,1.2858865431776647,3.5411544004816977,0.03244006069664757,1.5204081632653061,0.6577181208053691
3.4193879579567437,0.030460413614692115,0.29969808490266386,1.2847363633756759,0.29957496585558063,1.284733192174654,3.517279402223053,0.03473849772687879,1.5224489795918368,0.6568364611260054
3.415023811777489,0.03206923023052229,0.20349942251978329,1.2836212588782325,0.20339570274665464,1.2835869071052588,3.4840469934661433,0.0368555318732647,1.5244897959183674,0.6559571619812583
3.401383882745925,0.03361397797261325,0.10758230569490036,1.2825111919527288,0.10750233806891113,1.2824513736896677,3.443723524487342,0.038743564840768505,1.526530612244898,0.6550802139037433
3.3801585254474085,0.035045317756384496,0.011945441917525388,1.2814086623467065,0.011892613146681115,1.2813300315206506,3.398044965527608,0.04036600170039573,1.5285714285714287,0.6542056074766355
3.352835402580215,0.036323500668131906,-0.08341283251407663,1.2803160649475547,-0.08343622199203964,1.2802259482651461,3.3483615951924577,0.04169497132786709,1.530612244897959,0.6533333333333333
3.320696677450203,0.03741700403043251,-0.17849452820911124,1.2792356007878265,-0.17848734173531144,1.2791417092902588,3.2957490866510613,0.042709847294741345,1.5326530612244897,0.6524633821571239
3.2848434625820295,0.03830141780603813,-0.27330196567312054,1.2781691963688138,-0.2732642628716633,1.2780793265178199,3.241091716741341,0.04339629078815282,1.5346938775510204,0.6515957446808511
3.246229480609258,0.03895859196646335,-0.3678377268714971,1.2771184342745818,-0.367770750373765,1.2770401698143097,3.18514512398935,0.043745630201954475,1.536734693877551,0.650730411686587
3.2056956415258755,0.03937600582130959,-0.46210459718670116,1.2760844977171717,-0.462010714512121,1.276024923488575,3.1285851568450345,0.04375445794943759,1.5387755102040817,0.649867374005305
3.1640024089426206,0.03954631054044137,-0.556105500054321,1.2750681311433998,-0.5559881033028419,1.2750335695364414,3.0720480920591164,0.04342437007017328,1.5408163265306123,0.6490066225165563
3.121859360923458,0.03946700234141793,-0.6498434269322242,1.2740696183802886,-0.6497067945879882,1.2740653981821128,3.016166533238552,0.042761805789269504,1.542857142857143,0.6481481481481481
3.0799525039903495,0.03914019529057356,-0.7433213655018673,1.2730887790343681,-0.7431704921306523,1.2731190450922725,2.9616047798736584,0.041777968213013474,1.5448979591836736,0.6472919418758256
3.038970371860062,0.03857247506669609,-0.8365422290924595,1.272124983036388,-0.8363826299549211,1.272192553453862,2.909097410234077,0.04048882825347738,1.5469387755102042,0.646437994722955
2.9996300814320214,0.037774826947603736,-0.9295087902496934,1.2711771823885196,-0.9293462887798323,1.2712834579893117,2.85949525709461,0.038915235448860004,1.5489795918367348,0.6455862977602107
2.96270446145607,0.03676264243993939,-1.0222236211340223,1.2702439583825573,-1.0220641277983704,1.2703888870100177,2.813823886238047,0.037083185555209945,1.5510204081632653,0.6447368421052632
2.929051095970571,0.035555819384898456,-1.11468904304466,1.2693235818737674,-1.114538334277513,1.269505677850342,2.7733610570932705,0.035024330595322575,1.5530612244897959,0.6438896189224704
2.899643460640962,0.03417897965356283,-1.2069070868522345,1.2684140836679434,-1.206770592556454,1.2686305005356302,2.7397410653627468,0.03277686892802651,1.5551020408163265,0.6430446194225722
2.8756028774712576,0.03266183502906626,-1.29887946553029,1.2675133317473033,-1.2987620730658707,1.267759984349973,2.715093861651933,0.03038702776613259,1.5571428571428572,0.6422018348623854
2.858227018466692,0.03103973092353793,-1.3906075593551495,1.2666191119374286,-1.3905134410541193,1.2668908420825202,2.7022207732238246,0.027911448626887624,1.5591836734693878,0.6413612565445026
2.849004885042558,0.029354378390508407,-1.4820924137486506,1.2657292086915009,-1.4820248838542776,1.2660199871144888,2.704783591175679,0.025420873012536906,1.5612244897959184,0.6405228758169934
2.849597824913469,0.027654725189745,-1.5733347492082648,1.2648414829052672,-1.5732961548075752,1.2651446391057173,2.7274079563898748,0.023005443233680294,1.563265306122449,0.639686684073107
2.861749917061218,0.025997776686518828,-1.6643349823315112,1.263953944030484,-1.6643266314041654,1.264262414781185,2.77541477585377,0.020781171422158885,1.5653061224489797,0.6388526727509778
2.8870717132097745,0.024448902693787182,-1.7550932566010058,1.263064814179861,-1.755115384813585,1.2633714011367556,2.853555300259688,0.01889447264341933,1.5673469387755103,0.6380208333333333
2.926634511068365,0.02308072991684371,-1.8456094813504136,1.2621725823747962,-1.8456612577463136,1.2624702092232634,2.9629400271924973,0.0175157112281151,1.569387755102041,0.6371911573472041
2.9803582605055072,0.02196925904737875,-1.935883377164738,1.2612760475540752,-1.9359629474913107,1.2615580074904758,3.096611026186056,0.01680708388354985,1.5714285714285714,0.6363636363636364
3.04632924595436,0.021185895311247586,-2.0259145258705242,1.260374349424674,-2.0260190909925915,1.2606345344535783,3.2378994428443324,0.01686257688410784,1.573469387755102,0.6355382619974059
3.1204249621612847,0.020785557875269648,-2.115702423234756,1.2594669866886143,-2.1158283489442287,1.2597000911702534,3.366484816213007,0.017658380039613748,1.5755102040816327,0.6347150259067358
3.196721123905738,0.020794184788403176,-2.2052465325110084,1.2585538226159754,-2.205389486084204,1.2587555146754155,3.4681387134811805,0.019064409170670506,1.5775510204081633,0.6338939197930142
3.268781038433707,0.021201570561285778,-2.294546337046146,1.2576350783456582,-2.2947014451435392,1.2578021341003847,3.538531525359726,0.020905033576385873,1.579591836734694,0.6330749354005167
3.331229103281566,0.021963875967970746,-2.383601390287907,1.256711314668992,-2.3837634122483773,1.2568417116906179,3.5801947365183002,0.023013244930926595,1.5816326530612246,0.632258064516129
3.380749331200193,0.023014442327696588,-2.472411361704272,1.2557834033751847,-2.4725748719628124,1.2558763713182002,3.598240529636673,0.025253297607363116,1.5836734693877552,0.6314432989690721
3.4161614838888243,0.02427712031051749,-2.560976077329539,1.2548524895024684,-2.561135650583293,1.2549085173551773,3.597846037124355,0.027521714388259108,1.5857142857142859,0.6306306306306306
3.437875467605874,0.02567688805951121,-2.6492955538768594,1.2539199460427424,-2.649445946732179,1.2539407469325454,3.5833481126907345,0.02974084100531464,1.5877551020408165,0.6298200514138816
3.4472037256804,0.027145925003990875,-2.737370025592172,1.2529873227937662,-2.7375063487329716,1.2529757586642936,3.558123133123147,0.03185199971857874,1.5897959183673471,0.6290115532734274
3.4458193727919193,0.028625913871354675,-2.825199963264185,1.2520562911492121,-2.8253178386715736,1.2520162608802308,3.5247313577665684,0.0338102281791651,1.5918367346938775,0.6282051282051282
3.43542548775828,0.03006810934888217,-2.912786085046439,1.251128586669117,-2.9128817834488374,1.251064882297383,3.485106723778947,0.03558065100014156,1.5938775510204082,0.6274007682458387
3.4175920276492664,0.03143241575163515,-3.0001293589937306,1.2502059512837644,-3.000199913511726,1.250124087873928,3.440722005523212,0.037136073547289226,1.5959183673469388,0.6265984654731458
3.393696634784445,0.03268619745232097,-3.0872309974643932,1.249290076949431,-3.087274290300692,1.249196102345158,3.392716186293936,0.03845540084264653,1.5979591836734695,0.6257982120051085
3.3649201741466754,0.03380315661129659,-3.174092443789861,1.2483825524880738,-3.1741072637779033,1.2482828436226057,3.341988523197515,0.039522592392755615,1.6,0.625
