s11a,s11m,s12a,s12m,s21a,s21m,s22a,s22m,wavelengths,freqs
3.0280579250862383,28.233725072941066,-0.510805173598712,287.59307703882104,-0.5766584551366927,295.7719267550663,3.0050720242197837,28.497754896883922,1.5,0.6666666666666666
3.0261773699540466,28.209087831653516,-0.62677475926088,286.882164100091,-0.6968511400304495,292.78630822728945,3.004462231078155,28.47323580706113,1.5020408163265306,0.6657608695652174
3.0252434589669277,28.180415020442958,-0.7405223865526381,285.3325526153908,-0.8127222261599378,288.79613871939534,3.004752722968706,28.453934990369728,1.5040816326530613,0.6648575305291723
3.025209896832806,28.154732008116103,-0.8514845263869733,283.1290644967906,-0.9237273204064045,284.1825787847759,3.00579245303876,28.445789325031175,1.506122448979592,0.6639566395663956
3.0259666702090904,28.137854393586565,-0.959290587091903,280.4806638743901,-1.0296742892463597,279.31059890090376,3.007395628818113,28.452542268443185,1.5081632653061225,0.6630581867388362
3.0273634477701012,28.134031464000614,-1.06376086321976,277.59864393221716,-1.1306628476128517,274.4979569243249,3.009374103686921,28.475927983556854,1.510204081632653,0.6621621621621622
3.029232830035448,28.145902174953424,-1.164886758767483,274.6802026325824,-1.2270104948704774,270.0018679363078,3.0115588597336274,28.51612672527232,1.5122448979591836,0.6612685560053981
3.031409255507888,28.174674550590083,-1.2628013377466818,271.8983999279831,-1.319182098824808,266.01876369380494,3.0138104072815852,28.572278433999298,1.5142857142857142,0.6603773584905661
3.0337417778599227,28.220420719045464,-1.3577472168873823,269.39780925608164,-1.4077324017027537,262.6917191486136,3.0160207115966293,28.642941788752243,1.5163265306122449,0.6594885598923285
3.0361008787940404,28.28239748812742,-1.4500466393476577,267.29433770973395,-1.493263818490519,260.12069719088436,3.0181102695715976,28.726419200511234,1.5183673469387755,0.6586021505376344
3.038380569478926,28.359334531369676,-1.5400762936104087,265.67755478928996,-1.5763986574504294,258.37302499003334,3.0200227687720713,28.820985632220868,1.5204081632653061,0.6577181208053691
3.040497351945798,28.44966276754858,-1.6282476577026277,264.61413370770464,-1.6577624468409446,257.4921331656803,3.0217194960732385,28.925001130902775,1.5224489795918368,0.6568364611260054
3.0423874543294636,28.551677162136045,-1.7149925006342766,264.1514080102177,-1.7379755265399783,257.50427553238086,3.023174099469733,29.03697095422184,1.5244897959183674,0.6559571619812583
3.044003402319953,28.66364029881548,-1.8007525725113873,264.3204186322521,-1.8176497176443833,258.42286088169675,3.024368330494027,29.15555131054801,1.526530612244898,0.6550802139037433
3.0453106266401826,28.78383802235572,-1.8859722830875492,265.13811009547015,-1.8973876510987036,260.2505230289128,3.025288816707055,29.27952249613369,1.5285714285714287,0.6542056074766355
3.0462845176138758,28.91059914800047,-1.971093153161399,266.6085216745149,-1.9777828992022306,262.97917437765955,3.0259246524965158,29.407754545268173,1.530612244897959,0.6533333333333333
3.046908142373858,29.04229000134254,-2.056548894179233,268.72293844015746,-2.0594187530014954,266.5878770436404,3.026266068982552,29.539144405423333,1.5326530612244897,0.6524633821571239
3.047170724107617,29.177292915241335,-2.142760079651043,271.4590447529968,-2.142864360968003,271.03888461846725,3.026303793128846,29.672560426399308,1.5346938775510204,0.6515957446808511
3.047066921272383,29.31397662091154,-2.23012748382503,274.7791941153106,-2.2286662419265078,276.2717726113963,3.0260293842408057,29.806777117435452,1.536734693877551,0.650730411686587
3.046596909059498,29.45066609886569,-2.3190232965295308,278.62799981881227,-2.3173334778416965,282.19598001240155,3.025436617176593,29.940408809266252,1.5387755102040817,0.649867374005305
3.045767230619839,29.585619949059044,-2.4097796153454363,282.929581595219,-2.409315139996923,288.6825165596154,3.024523930074101,30.07185918041558,1.5408163265306123,0.6490066225165563
3.0445923258556475,29.71702438697322,-2.5026739280602284,287.58498303406753,-2.504969028585552,295.55617980654375,3.0232979555094586,30.199302677210497,1.542857142857143,0.6481481481481481
3.043096543238816,29.84301388705384,-2.5979117953914383,292.47048987136867,-2.6045220536085307,302.5903798467535,3.0217780560214016,30.320708389307075,1.5448979591836736,0.6472919418758256
3.0413162874428887,29.96172810200266,-2.69560766992014,297.43778450876636,-2.7080254164229483,309.5078005573494,3.02000102737468,30.433946218154283,1.5469387755102042,0.646437994722955
3.039301770189277,30.071411452815617,-2.795765732899911,302.3169713887534,-2.8153107268989563,315.9901632642521,3.0180249821234573,30.536972529738595,1.5489795918367348,0.6455862977602107
3.037117668295087,30.170554296914787,-2.898263645858118,306.9233774204203,-2.9259575073739876,321.7000087334344,3.015930376191955,30.628117052083596,1.5510204081632653,0.6447368421052632
3.0348419465403786,30.25806256111557,-3.0028429206366534,311.0685359045468,-3.039284103400574,326.31423438160095,3.0138167085037106,30.706402349218443,1.5530612244897959,0.6438896189224704
3.0325622846619615,30.333428297338696,-3.109109774545003,314.57486166404954,-3.1543731930686896,329.56527287563046,3.0117937325393838,30.77183410930229,1.5551020408163265,0.6430446194225722
3.030370023164321,30.396861963560852,-3.2165494431549324,317.2923576746604,-3.2701359058249584,331.28081530082915,3.0099682946276856,30.82553575405407,1.5571428571428572,0.6422018348623854
3.028352251134918,30.449345300534212,-3.3245548108320513,319.1146282592693,-3.385408350455232,331.4115065215738,3.008429458738998,30.869684860091898,1.5591836734693878,0.6413612565445026
3.0265833752880935,30.492576550532082,-3.43246723926946,319.991001374904,-3.499062658934865,330.0376123805808,3.0072365257543208,30.907201566082946,1.5612244897959184,0.6405228758169934
3.0251179077746038,30.52880620110059,-3.539624483677231,319.9320685822846,-3.610110135339689,327.35316460453487,3.0064130693942155,30.941314079405302,1.563265306122449,0.639686684073107
3.0239860430978722,30.560592337947647,-3.6454087008911475,319.0074022246752,-3.7177763848978134,323.63279871606557,3.0059484392981757,30.97510387305139,1.5653061224489797,0.6388526727509778
3.023192868833993,30.59052700615003,-3.7492875326785966,317.33611712337535,-3.8215383498795163,319.1913914677336,3.0058052539931657,31.01114793737737,1.5673469387755103,0.6380208333333333
3.0227210633787345,30.62098927790534,-3.8508431014174107,315.0725715445029,-3.9211248115358766,314.346896627815,3.0059295944796576,31.051347789073162,1.569387755102041,0.6371911573472041
3.0225360890495074,30.653966684095952,-3.9497867270846365,312.3902726569273,-4.016489469622557,309.39247842079317,3.0062611497932856,31.096897330756143,1.5714285714285714,0.6363636363636364
3.022592488092935,30.69096255853695,-4.04596016308154,309.46683822177675,-4.107769227097377,304.58030982525406,3.006741084453938,31.14837119802745,1.573469387755102,0.6355382619974059
3.0228399767524268,30.732983522958733,-4.139326275035289,306.4719616184684,-4.195238667186386,300.11569101557114,3.0073169298470255,31.20587682407518,1.5755102040816327,0.6347150259067358
3.023228442859425,30.780586378458793,-4.22995300009697,303.55920691473824,-4.279267951421002,296.15821022932874,3.0079450079523005,31.269192096467368,1.5775510204081633,0.6338939197930142
3.023711450804075,30.833958902031366,-4.317994275445093,300.86151892063657,-4.360288357177488,292.8272975112814,3.0085907460011327,31.337906660157014,1.579591836734694,0.6330749354005167
3.024248266004235,30.893011960633324,-4.4036708327540595,298.4897521526264,-4.438766209709997,290.20931662301876,3.00922792534566,31.41151862584051,1.5816326530612246,0.632258064516129
3.0248046556666335,30.95746698235588,-4.487252740775579,296.5333052461283,-4.515184729340814,288.3647091227588,3.009837345087066,31.48950287136407,1.5836734693877552,0.6314432989690721
3.025352813352233,31.026929840789755,-4.56904465234912,295.06197703237405,-4.590032440740433,287.3343068612579,3.0104052607111957,31.571361206406333,1.5857142857142859,0.6306306306306306
3.025870741107585,31.1009477865046,-4.649373999780352,294.12832919371874,-4.663796312321622,287.14414119550406,3.0109220303781203,31.656635234489777,1.5877551020408165,0.6298200514138816
3.0263413577175218,31.179049669216703,-4.72858192515771,293.7700358345019,-4.736958450314666,287.8089894169441,3.011380753638406,31.744928037215498,1.5897959183673471,0.6290115532734274
3.0267515234656295,31.2607715586263,-4.807016471047348,294.0118840464881,-4.80999463074723,289.33425426804604,3.0117762823856475,31.83589559419363,1.5918367346938775,0.6282051282051282
3.0270911029562355,31.345670519044067,-4.885027443235614,294.8672276914854,-4.883373813396709,291.7165412703531,3.0121043280149222,31.9292448081039,1.5938775510204082,0.6274007682458387
3.027352135861996,31.43332921608924,-4.96296232818052,296.3387937409243,-4.9575574501981094,294.9428006030812,3.0123607995457764,32.02472092602893,1.5959183673469388,0.6265984654731458
3.027528152168562,31.523353639635996,-5.041162659751401,298.41880841266925,-5.032997682571839,298.9881252935485,3.0125413072051237,32.12209162416519,1.5979591836734695,0.6257982120051085
3.0276136502091644,31.615365770114504,-5.119960263835354,301.0884565619764,-5.110133483145525,303.8122594185051,3.012640817542753,32.221129659752414,1.6,0.625
