s11a,s11m,s21a,s21m,s12a,s12m,s22a,s22m,wavelengths,freqs
-3.0052000913317216,0.030256737621494976,-2.7048796619204363,1.0002039421068027,-2.7050109448987825,1.00042664865904,-2.7475725556000676,0.031505283763320464,1.5,0.6666666666666666
-2.9990190078208334,0.030489712920042124,-2.739570757002347,1.0001933595139274,-2.739703123061746,1.000394624463161,-2.749499750971983,0.03234807919921764,1.5020408163265306,0.6657608695652174
-2.993723809008379,0.030735460870987413,-2.7741614045003855,1.0001823687152163,-2.774293263822348,1.0003624257574177,-2.7533677841072843,0.0331803336818117,1.5040816326530613,0.6648575305291723
-2.9893206504354146,0.030991802010781208,-2.808652025824222,1.0001710334080116,-2.8087818240410307,1.0003302271878107,-2.759002421231843,0.03399803066237775,1.506122448979592,0.6639566395663956
-2.9858085157224012,0.03125658363779815,-2.843043044373057,1.0001594182609643,-2.843169269975404,1.0002982006419807,-2.766243547285667,0.03479756040786699,1.5081632653061225,0.6630581867388362
-2.9831800399650104,0.031527693251400264,-2.8773348857228136,1.0001475877423511,-2.877456077159503,1.0002665133045978,-2.774944705746674,0.035575675724551135,1.510204081632653,0.6621621621621622
-2.9814223229551016,0.03180306987099579,-2.9115279773757266,1.0001356066927074,-2.911642729804091,1.0002353281692709,-2.7849723372459123,0.03632945273683665,1.5122448979591836,0.6612685560053981
-2.9805177110217564,0.03208071341055953,-2.945622748792173,1.000123539623141,-2.945729720436401,1.00020480275107,-2.7962048529312717,0.037056256588191075,1.5142857142857142,0.6603773584905661
-2.9804445319656407,0.032358692303972286,-2.9796196312943812,1.0001114505509738,-2.9797175493695187,1.0001750885755283,-2.808531635599301,0.03775371175271221,1.5163265306122449,0.6594885598923285
-2.9811777726050717,0.03263514958662405,-3.0135190579926103,1.000099402759494,-3.0136067241602094,1.0001463305904605,-2.8218520303854624,0.03841967655537446,1.5183673469387755,0.6586021505376344
-2.982689692798871,0.03290830764207867,-3.047321463716604,1.0000874585565258,-3.047397759047318,1.0001186666164006,-2.8360743645581676,0.03905222146287478,1.5204081632653061,0.6577181208053691
-2.984950373447584,0.03317647181420753,-3.0810272849479174,1.0000756790215364,-3.0810911743758123,1.0000922268255972,-2.851115020361679,0.039649610698213766,1.5224489795918368,0.6568364611260054
-2.9879281988673654,0.033438033075855154,-3.114636959743834,1.0000641237342938,-3.114687496003559,1.0000671332418842,-2.866897574061196,0.040210286743095264,1.5244897959183674,0.6559571619812583
-2.991590276125741,0.03369146992025619,-3.1481509276402595,1.0000528504862012,-3.1481872546832106,1.0000434992579383,-2.8833520069527907,0.040732857313722226,1.526530612244898,0.6550802139037433
-2.995902795437052,0.03393534962056631,-3.1815696295232585,1.000041914980182,-3.1815909854105735,1.0000214291735756,-2.9004139891570313,0.041216084424278564,1.5285714285714287,0.6542056074766355
-3.00083133661203,0.03416832897286684,-3.2148935074623974,1.0000313705314485,-3.214899226732877,1.0000010177654661,-2.9180242337630036,0.04165887518481299,1.530612244897959,0.6533333333333333
-3.0063411269343963,0.03438915461264311,-3.2481230045055525,1.000021267782766,-3.2481125200164582,0.999982349900469,-2.93612791689683,0.04206027402396317,1.5326530612244897,0.6524633821571239
-3.0123972558195384,0.03459666297124925,-3.281258564441138,1.0000116544467395,-3.281231408678869,0.9999655002059806,-2.9546741581783453,0.04241945606518562,1.5346938775510204,0.6515957446808511
-3.018964851315862,0.0347897799206727,-3.314300631538026,1.0000025750833397,-3.314256437395203,0.9999505328069284,-2.9736155555613517,0.04273572142857694,1.536734693877551,0.650730411686587
-3.026009223074773,0.03496752014230314,-3.3472496502752587,0.9999940709153787,-3.3471881512908856,0.9999375011345235,-2.992907768534129,0.04300849026897853,1.5387755102040817,0.649867374005305
-3.033495975925234,0.03512898624962626,-3.380106065072792,0.9999861796781461,-3.3800270951327627,0.9999264478069468,-3.012509143911276,0.043237298394690295,1.5408163265306123,0.6490066225165563
-3.0413910977307492,0.035273367688649214,-3.4128703200293673,0.9999789354969465,-3.4127738125274574,0.9999174045787318,-3.0323803788600374,0.04342179333909608,1.542857142857143,0.6481481481481481
-3.0496610247978815,0.035399939442615234,-3.445542858669964,0.9999723687829302,-3.445428845133019,0.9999103923541701,-3.0524842162529255,0.043561730778928845,1.5448979591836736,0.6472919418758256
-3.0582726877695805,0.03550806056407488,-3.4781241236988523,0.9999665061407013,-3.477992731886232,0.9999054212608244,-3.0727851678646574,0.04365697120957083,1.5469387755102042,0.646437994722955
-3.067193540642517,0.035597172557775864,-3.5106145567518476,0.9999613702842954,-3.5104660082469077,0.9999024907813145,-3.0932492612802807,0.043707476801035164,1.5489795918367348,0.6455862977602107
-3.0763915752807303,0.03566679763537317,-3.5430145981402066,0.9999569799632384,-3.542849205460301,0.9999015899437903,-3.1138438066489864,0.04371330837059256,1.5510204081632653,0.6447368421052632
-3.085835323528446,0.035716536859408066,-3.5753246865807453,0.9999533499052319,-3.575142849840699,0.9999026975732006,-3.1345371796050823,0.0436746224198636,1.5530612244897959,0.6438896189224704
-3.095493848747203,0.03574606819264212,-3.607545258911468,0.9999504907839022,-3.6073474620821857,0.9999057826044793,-3.155298616832908,0.043591668200391544,1.5551020408163265,0.6430446194225722
-3.1053367283021265,0.03575514446289166,-3.639676749796194,0.9999484092220224,-3.6394635566037317,0.9999108044586879,-3.176098020846763,0.04346478478265689,1.5571428571428572,0.6422018348623854
-3.1153340282387894,0.035743591256928234,-3.671719591427684,0.9999471078357557,-3.671491640938077,0.999917713477954,-3.196905770716135,0.04329439812485512,1.5591836734693878,0.6413612565445026
-3.1254562711138925,0.03571130475442472,-3.7036742132406393,0.9999465853225232,-3.7034322151721932,0.9999264514134614,-3.2176925355796766,0.043081018148495916,1.5612244897959184,0.6405228758169934
-3.1356743977260817,0.035658249517224155,-3.7355410416464694,0.9999468365885569,-3.7352857714451155,0.9999369519571721,-3.2384290879611886,0.04282523584294895,1.563265306122449,0.639686684073107
-3.145959723328549,0.03558445625225233,-3.7673204997991854,0.9999478529073357,-3.7670527935058087,0.9999491413069869,-3.25908611404229,0.04252772042979381,1.5653061224489797,0.6388526727509778
-3.156283888820778,0.035490019570166946,-3.7990130073967854,0.9999496220966894,-3.798733756330199,0.9999629387552093,-3.2796340181632484,0.04218921662348484,1.5673469387755103,0.6380208333333333
-3.1666188073927897,0.035375095764541294,-3.8306189805164568,0.9999521287024907,-3.830329125793545,0.9999782572927585,-3.3000427188680406,0.04181054202661825,1.569387755102041,0.6371911573472041
-3.1769366071266254,0.03523990063747117,-3.862138831477576,0.9999553541779699,-3.8618393583943824,0.9999950042228791,-3.3202814337607993,0.04139258469736634,1.5714285714285714,0.6363636363636364
-3.1872095701169574,0.03508470739659221,-3.8935729687216747,0.9999592770538854,-3.893264901024966,1.0000130817822936,-3.340318450272656,0.04093630092484348,1.573469387755102,0.6355382619974059
-3.197410068733044,0.03490984464552854,-3.9249217966990915,0.9999638730992252,-3.9246061907862138,1.0000323877680697,-3.3601208791465424,0.04044271324697521,1.5755102040816327,0.6347150259067358
-3.207510499692336,0.034715694485705544,-3.9561857157536577,0.9999691154779184,-3.955863654846473,1.0000528161693665,-3.3796543870410902,0.03991290874644449,1.5775510204081633,0.6338939197930142
-3.217483216632539,0.03450269074260821,-3.987365122001393,0.9999749749102826,-3.987037710345289,1.0000742578018942,-3.3988829041440733,0.039348037664215914,1.579591836734694,0.6330749354005167
-3.227300461866622,0.034271317325323625,-4.018460407204969,0.9999814198485687,-4.018128764343954,1.0000966009409225,-3.417768302103256,0.03874931237746552,1.5816326530612246,0.632258064516129
-3.236934297987145,0.034022106724936184,-4.049471958650865,0.9999884166736619,-4.049137213823731,1.0001197319465256,-3.4362700369415458,0.03811800679878016,1.5836734693877552,0.6314432989690721
-3.2463565399820404,0.03375563865552774,-4.080400159039711,0.9999959299151019,-4.0800634457303975,1.0001435358735202,-3.4543447509398804,0.03745545626492175,1.5857142857142859,0.6306306306306306
-3.255538688550207,0.03347253884121667,-4.111245386400361,1.0000039224912787,-4.110907837061122,1.0001678970580916,-3.4719458267726635,0.036763057997826594,1.5877551020408165,0.6298200514138816
-3.2644518653938364,0.03317347795301337,-4.142008014036929,1.0000123559598284,-4.1416707549867136,1.0001926996756914,-3.4890228863888733,0.0360422722297702,1.5897959183673471,0.6290115532734274
-3.2730667514144534,0.032859170699818446,-4.172688410511565,1.0000211907661576,-4.172352557001269,1.0002178282665504,-3.5055212263629913,0.035294624101056,1.5918367346938775,0.6282051282051282
-3.281353528979386,0.03253037507768394,-4.203286939660343,1.000030386475999,-4.202953591090794,1.0002431682296151,-3.5213811805374156,0.0345217064479163,1.5938775510204082,0.6274007682458387
-3.2892818297155726,0.03218789177953393,-4.233803960633146,1.0000399019810342,-4.233474195914793,1.0002686062882689,-3.536537399869844,0.033725183613760076,1.5959183673469388,0.6265984654731458
-3.2968206896437144,0.03183256376402313,-4.264239827944184,1.0000496956718816,-4.263914700997816,1.0002940309331572,-3.5509180384808747,0.03290679643402855,1.5979591836734695,0.6257982120051085
-3.303938513843419,0.031465275976608524,-4.294594891518637,1.0000597255796304,-4.294275426931838,1.0003193328471598,-3.5644438341041655,0.03206836856781338,1.6,0.625
