s11a,s11m,s12a,s12m,s21a,s21m,s22a,s22m,wavelengths,freqs
-3.0023483373675086,0.040359032192583404,-2.110045783708743,1.2957038735422548,-2.109864780193938,1.2956776820388434,-3.0455980948849937,0.04580777979552386,1.5,0.6666666666666666
-3.045100225719758,0.041065112147897,-2.213603351758029,1.2945166312758065,-2.213384785821734,1.2945109811334754,-3.106918234364179,0.0461481124659722,1.5020408163265306,0.6657608695652174
-3.0897141307598517,0.04146853003511936,-2.316856316029047,1.2933486950958561,-2.316603720692826,1.2933729990177392,-3.1685624696166106,0.046065765530154096,1.5040816326530613,0.6648575305291723
-3.135235172824225,0.04156407136681345,-2.4198083677994497,1.2922015894679264,-2.419526663857828,1.2922639996945913,-3.229738064044582,0.045567973085310715,1.506122448979592,0.6639566395663956
-3.180783868333602,0.04135333906236048,-2.5224633507187173,1.2910761209271462,-2.5221585994320916,1.2911832142622348,-3.2896573778884233,0.0446686055251047,1.5081632653061225,0.6630581867388362
-3.225513266771375,0.04084417137597498,-2.624825137855312,1.2899723719786207,-2.6245042544990453,1.2901289142362946,-3.347483794245825,0.04338780817372739,1.510204081632653,0.6621621621621622
-3.2685679257868543,0.0400502595113799,-2.7268975146575265,1.2888897277026725,-2.7265679571094497,1.2890985226667016,-3.402271082009971,0.041751865954602306,1.5122448979591836,0.6612685560053981
-3.3090428181432077,0.03899096779094883,-2.8286840723893416,1.2878269307424643,-2.8283535184030644,1.2880887549174196,-3.452889018292955,0.039793358807814413,1.5142857142857142,0.6603773584905661
-3.345940614254955,0.03769137118845297,-2.930188115182852,1.286782159805061,-2.9298641415022026,1.2870957811987773,-3.497926377863286,0.03755171690912116,1.5163265306122449,0.6594885598923285
-3.378126713157798,0.03618253568577802,-3.0314125831198875,1.2857531269004587,-3.03110235852799,1.286115403333734,-3.535560291380153,0.0350743538061996,1.5183673469387755,0.6586021505376344
-3.404283503483717,0.034502074464341975,-3.1323599929200054,1.2847371885901193,-3.132069996167946,1.285143238738104,-3.563380378107604,0.03241866259424769,1.5204081632653061,0.6577181208053691
-3.4228698630124557,0.03269500990049655,-3.233032397308428,1.283731466680816,-3.232768169589075,1.2841749050783866,-3.5781634038787815,0.029655309238860925,1.5224489795918368,0.6568364611260054
-3.432101027185642,0.030814938239617305,-3.3334313636716875,1.282732973875744,-3.333197303854011,1.2832061993808024,-3.5756286499080696,0.026873397657156673,1.5244897959183674,0.6559571619812583
-3.429980744382541,0.028925388434586016,-3.4335579721540914,1.2817387399095523,-3.433357181371663,1.282233265596807,-3.550315285910402,0.024187952472902643,1.526530612244898,0.6550802139037433
-3.4144441154900917,0.027101011882611565,-3.5334128328348324,1.280745933675131,-3.533247013358803,1.281252744964298,-3.4960078394550504,0.0217488749067822,1.5285714285714287,0.6542056074766355
-3.383698924544552,0.025427734271303157,-3.6329961211041866,1.2797519769271857,-3.6328655324142853,1.2802619037742022,-3.4076400172963415,0.019745920512790793,1.530612244897959,0.6533333333333333
-3.3368515523423192,0.02400022812946674,-3.732307629680022,1.2787546452738867,-3.732211102649632,1.27925873382186,-3.2857096502221705,0.018394351842401097,1.5326530612244897,0.6524633821571239
-3.2747905751662683,0.022914425914538898,-3.831346835126141,1.2777521525824207,-3.8312818429513325,1.2782420216047912,-3.1416971348213028,0.017880069672022953,1.5346938775510204,0.6515957446808511
-3.2010001948097657,0.022253544938778347,-3.9301129759528615,1.2767432153799785,-3.930075758325717,1.277211383520003,-2.9975973244559038,0.018273972166899532,1.536734693877551,0.650730411686587
-3.121631608954256,0.022069798783799038,-4.028605138966308,1.2757270947564565,-4.028590873745284,1.276167265704658,-2.8753805459847985,0.019487838040321413,1.5387755102040817,0.649867374005305
-3.044303473411062,0.0223694959431057,-4.126822349994251,1.274703614180828,-4.12682536471283,1.2751109087995431,-2.786479073430999,0.021323373368312647,1.5408163265306123,0.6490066225165563
-2.9760331936118645,0.023110569278917997,-4.224763664917486,1.2736731528168659,-4.22477767882412,1.274044279590958,-2.7313539881980713,0.023559457991280317,1.542857142857143,0.6481481481481481
-2.92153714504772,0.024214450836548742,-4.322428256907401,1.2726366151114197,-4.3224466430214585,1.2729699731105062,-2.7049200705374825,0.026005996181273177,1.5448979591836736,0.6472919418758256
-2.8827685590322867,0.025584938354736193,-4.4198154960538805,1.2715953786613907,-4.41983155201897,1.2718910902631895,-2.700952829234619,0.028516718103956114,1.5469387755102042,0.646437994722955
-2.859498236442746,0.027124789615467274,-4.5169250179281795,1.270551223332366,-4.516932234345465,1.2708110971539333,-2.7139863219356832,0.030983065278823156,1.5489795918367348,0.6455862977602107
-2.850232123265332,0.02874569783943329,-4.6137567783858495,1.269506245565158,-4.613749093665307,1.269733673038011,-2.7397370871613727,0.033324538368803364,1.5510204081632653,0.6447368421052632
-2.852968098341174,0.030372250501022754,-4.7103110926545355,1.2684627623463236,-4.710283124417026,1.268662554197621,-2.774982653527412,0.035480775594078376,1.5530612244897959,0.6438896189224704
-2.865656077263605,0.03194225785545421,-4.8065886576446175,1.2674232096223104,-4.806535902008032,1.267601380797145,-2.8173193566822534,0.03740605815491125,1.5551020408163265,0.6430446194225722
-2.886417766202092,0.03340548680050392,-4.902590557343674,1.2663900399549373,-4.902509549186076,1.2665535533772434,-2.864940228683094,0.03906570778594622,1.5571428571428572,0.6422018348623854
-2.913620666926358,0.03472197398155484,-4.998318251958293,1.2653656238862436,-4.9982066811022285,1.2655221046074117,-2.9164630725993153,0.04043375167671924,1.5591836734693878,0.6413612565445026
-2.9458785092540616,0.035860440222372184,-5.093773552193126,1.2643521589642495,-5.093630332520698,1.2645095909201933,-2.970804623630007,0.04149139232347073,1.5612244897959184,0.6405228758169934
-2.9820206665992344,0.03679697474070858,-5.188958580621245,1.2633515897088183,-5.188783871095078,1.263518007316963,-3.0270895041991817,0.042225981389691615,1.563265306122449,0.639686684073107
-3.021052116937871,0.03751400251440618,-5.283875722450371,1.2623655409936516,-5.283670900961815,1.2625487274199854,-3.084583444781529,0.04263031150418303,1.5653061224489797,0.6388526727509778
-3.0621134787098168,0.037999494864917376,-5.378527568250755,1.2613952665968,-5.378295160910191,1.26160246960464,-3.142642590359006,0.04270211404638004,1.5673469387755103,0.6380208333333333
-3.104444512177787,0.03824637421399498,-5.472916851264885,1.260441613900355,-5.472660421300729,1.2606792890317504,-3.2006728011372854,0.04244369761340499,1.569387755102041,0.6371911573472041
-3.147351602197643,0.038252070978005974,-5.567046381922164,1.2595050050783663,-5.566770383581364,1.2597785944204662,-3.2580942976257017,0.04186169174117029,1.5714285714285714,0.6363636363636364
-3.190178504764355,0.03801820178349834,-5.660918982074442,1.2585854345038507,-5.660628585927611,1.2588991876816542,-3.314307804951897,0.040966880947833136,1.573469387755102,0.6355382619974059
-3.232279173177523,0.037550349325522585,-5.754537421296539,1.2576824815628813,-5.754238318067669,1.2580393238594245,-3.3686585896925174,0.03977413038946112,1.5755102040816327,0.6347150259067358
-3.2729913515902394,0.036857934198259175,-5.847904357389849,1.2567953376228485,-5.847602547869027,1.2571967883226707,-3.42039448733523,0.038302420333310286,1.5775510204081633,0.6338939197930142
-3.3116096538465296,0.03595417807496032,-5.941022282934668,1.2559228454891376,-5.940723861720662,1.25636898774945,-3.4686131701364835,0.03657502607973846,1.579591836734694,0.6330749354005167
-3.347357005142233,0.03485616617617628,-6.033893479431218,1.2550635493961617,-6.033604420191696,1.2555530512033868,-3.512192467735927,0.03461990748390604,1.5816326530612246,0.632258064516129
-3.3793537129315636,0.03358502530646807,-6.126519980198922,1.2542157533262999,-6.12624592983596,1.2547459374236123,-3.5496956148045227,0.03247041409072907,1.5836734693877552,0.6314432989690721
-3.4065843196879286,0.03216624135409549,-6.218903542893896,1.2533775853892697,-6.218649631473089,1.2539445444884414,-3.5792415188111626,0.03016647643907159,1.5857142857142859,0.6306306306306306
-3.4278643161961933,0.03063014470989433,-6.311045632117875,1.2525470658778841,-6.310816304711978,1.2531458180830006,-3.598331060235388,0.02775654949204429,1.5877551020408165,0.6298200514138816
-3.44181275023847,0.029012587286065088,-6.4029474123028125,1.251722176675984,-6.402746288008489,1.2523468548367305,-3.603632131324438,0.025300695286473274,1.5897959183673471,0.6290115532734274
-3.446844356059448,0.027355806411456806,-6.494609750748826,1.250900929742964,-6.494439513074064,1.2515449974356103,-3.59077121668577,0.02287526986808411,1.5918367346938775,0.6282051282051282
-3.4412080754936136,0.0257093902081212,-6.586033230383256,1.2500814324599308,-6.585895552066432,1.2507379185935057,-3.5543118914040375,0.020579423290781825,1.5938775510204082,0.6274007682458387
-3.4231184853126457,0.024131077605710663,-6.677218171563696,1.249261947825135,-6.677113675622539,1.2499236913749505,-3.4884091245655537,0.018542140171710783,1.5959183673469388,0.6265984654731458
-3.391046456696933,0.02268678651930542,-6.768164661913217,1.2484409475880087,-6.768092919453416,1.2491008438153826,-3.389076305061526,0.016924011008117034,1.5979591836734695,0.6257982120051085
-3.344230015664156,0.021448770764201347,-6.85887259297598,1.2476171567761842,-6.8588321570154,1.2482683964376267,-3.25874321139293,0.015899816365524976,1.6,0.625
