s11a,s11m,s12a,s12m,s21a,s21m,s22a,s22m,wavelengths,freqs
-2.879278682962725,0.030168921685608037,-2.7996463366452535,1.2967487433322444,-2.799791603085736,1.2967488062386376,-2.7629165984173683,0.0337343642787385,1.5,0.6666666666666666
-2.875844463281949,0.030693923066740614,-2.8341764599383272,1.2956049565577195,-2.8343152017335105,1.295589888325472,-2.7697379070766375,0.034526353490822115,1.5020408163265306,0.6657608695652174
-2.87395676274077,0.031221830340979057,-2.8686059802465893,1.294467262333064,-2.8687373877031836,1.294437850517379,-2.778041021490599,0.035297288815164654,1.5040816326530613,0.6648575305291723
-2.8735327586551676,0.03174923681102938,-2.9029353345730495,1.2933357510594559,-2.903058648568574,1.2932928492355258,-2.7876888034392446,0.036044216857691096,1.506122448979592,0.6639566395663956
-2.874488156565109,0.03227298026257027,-2.937164964564523,1.2922105112888633,-2.9372794796608828,1.2921550334104857,-2.798556412857892,0.0367644904186423,1.5081632653061225,0.6630581867388362
-2.8767387695591102,0.03279013447734932,-2.971295316334387,1.2910916292100358,-2.9714003835719334,1.2910245438015404,-2.810530335238148,0.037455736359569704,1.510204081632653,0.6621621621621622
-2.8802017033253198,0.03329799885177786,-3.0053268402784834,1.2899791881495126,-3.0054218696457102,1.2899015123571367,-2.823507378879167,0.03811582773391258,1.5122448979591836,0.6612685560053981
-2.884796213543379,0.033794086996756185,-3.0392599908796645,1.2888732680822694,-3.0393444534541785,1.2887860616111517,-2.837393687945248,0.038742859765492486,1.5142857142857142,0.6603773584905661
-2.8904442972124507,0.0342761149705423,-3.073095226495452,1.2877739451503176,-3.073168656252533,1.2876783041135955,-2.852103799652981,0.0393351292453769,1.5163265306122449,0.6594885598923285
-2.8970710724389908,0.03474198961101861,-3.106833009123263,1.2866812911916965,-3.106895004409188,1.2865783418983636,-2.867559761696762,0.039891116928703216,1.5183673469387755,0.6586021505376344
-2.904604993395364,0.035189797284623424,-3.1404738041396802,1.2855953732853762,-3.1405240288077714,1.285486265993753,-2.883690317728494,0.04040947253817481,1.5204081632653061,0.6577181208053691
-2.912977939449405,0.03561779325276102,-3.1740180800123805,1.28451625331909,-3.174056264220797,1.2844021559829681,-2.9004301632076452,0.040889002012602454,1.5224489795918368,0.6568364611260054
-2.922125210327555,0.03602439176785516,-3.2074663079860652,1.2834439875870183,-3.207492248657307,1.2833260796218189,-2.917719270393753,0.04132865667339554,1.5244897959183674,0.6559571619812583
-2.931985452859915,0.036408156945886186,-3.240818961745656,1.2823786264226227,-3.2408325226889168,1.282258092519001,-2.935502279063701,0.04172752401633371,1.526530612244898,0.6550802139037433
-2.942500539438009,0.036767794415867215,-3.2740765170611072,1.2813202138693855,-3.2740776287599296,1.2811982378821325,-2.9537279482743255,0.0420848198695094,1.5285714285714287,0.6542056074766355
-2.9536154137894757,0.03710214371537105,-3.307239451418034,1.2802687873899026,-3.3072281104871335,1.280146546329971,-2.9723486638510157,0.04239988169010946,1.530612244897959,0.6533333333333333
-2.965277915963804,0.037410171381405066,-3.3403082436373053,1.279224377611747,-3.3402845119540787,1.2791030357693687,-2.9913199960584573,0.04267216280220119,1.5326530612244897,0.6524633821571239
-2.9774385954374263,0.037690964674814066,-3.3732833734854197,1.2781870081080071,-3.3732473770034863,1.2780677113345305,-3.0106003019499092,0.042901227404984636,1.5346938775510204,0.6515957446808511
-2.990050518875002,0.03794372587146869,-3.4061653212759095,1.2771566952105147,-3.406117248529791,1.2770405653863368,-3.030150367094852,0.04308674620560809,1.536734693877551,0.650730411686587
-3.0030690772261406,0.03816776705289165,-3.438954567460803,1.2761334478564363,-3.4388946677731473,1.2760215775706758,-3.0499330816772456,0.043228492552859904,1.5387755102040817,0.649867374005305
-3.0164517953936154,0.03836250533129442,-3.471651592212136,1.2751172674684341,-3.4715801736161485,1.2750107149362413,-3.0699131462919516,0.043326338967746784,1.5408163265306123,0.6490066225165563
-3.0301581465977865,0.038527458448159954,-3.504256874992757,1.2741081478733811,-3.5041743018849223,1.2740079321136786,-3.0900568031034026,0.04338025398451973,1.542857142857143,0.6481481481481481
-3.0441493727107107,0.03866224069089803,-3.5367708941186864,1.2731060752629675,-3.536677584658089,1.2730131715586703,-3.1103315883509577,0.04339029923123754,1.5448979591836736,0.6472919418758256
-3.0583883111874637,0.03876655907832877,-3.5691941263160434,1.2721110282008334,-3.569090549588192,1.27202636386118,-3.130706102476459,0.04335662669277652,1.5469387755102042,0.646437994722955
-3.0728392287338053,0.03884020977243399,-3.601527046277796,1.271122977679009,-3.601413719242069,1.2710474281216237,-3.151149794397614,0.04327947611196131,1.5489795918367348,0.6455862977602107
-3.0874676614870524,0.0388830746809247,-3.6337701262262745,1.2701418872243952,-3.6336476104672113,1.2700762723925667,-3.1716327566600238,0.04315917249570126,1.5510204081632653,0.6447368421052632
-3.1022402612259135,0.038895118222258954,-3.665923835487671,1.269167713053424,-3.6657927337912817,1.2691127941817182,-3.1921255283684093,0.04299612370391163,1.5530612244897959,0.6438896189224704
-3.1171246469401717,0.03887638423195741,-3.69798864008387,1.2682004042707253,-3.697849592860889,1.2681568810097845,-3.212598902923408,0.04279081810859934,1.5551020408163265,0.6430446194225722
-3.132089260974405,0.038826992995630034,-3.7299650023456623,1.26723990310593,-3.729818683924333,1.2672084110148703,-3.23302373768098,0.04254382231955745,1.5571428571428572,0.6422018348623854
-3.1471032288887257,0.03874713840045587,-3.761853380549269,1.2662861451822491,-3.7617004953606523,1.266267253594543,-3.253370762696783,0.042255778981300104,1.5591836734693878,0.6413612565445026
-3.1621362221492153,0.038637085202171746,-3.793654228576704,1.2653390598109806,-3.79349550725579,1.2653332700772926,-3.273610385728846,0.04192740465315563,1.5612244897959184,0.6405228758169934
-3.177158322754835,0.038497166409172084,-3.825367995598916,1.2643985703075105,-3.825204191024805,1.2644063144162008,-3.2937124906331756,0.041559487790836874,1.563265306122449,0.639686684073107
-3.1921398889188706,0.03832778078901062,-3.8569951257805823,1.263464594326165,-3.856827009078764,1.2634862338998953,-3.3136462262008592,0.04115288685359306,1.5653061224489797,0.6388526727509778
-3.207051420944774,0.03812939050526235,-3.8885360580053256,1.2625370442131174,-3.888364414534671,1.2625728698773322,-3.333379782342861,0.04070852856597094,1.5673469387755103,0.6380208333333333
-3.221863426458243,0.0379025188949668,-3.9199912256214895,1.2616158273774145,-3.919816850967813,1.261666058494434,-3.3528801503252437,0.040227406367989264,1.569387755102041,0.6371911573472041
-3.2365462841853123,0.037647748398324375,-3.9513610562096653,1.2607008466805967,-3.951184752206911,1.260765631440832,-3.372112863484482,0.03971057909215909,1.5714285714285714,0.6363636363636364
-3.2510701054899784,0.037365718653699975,-3.9826459713742928,1.2597920008443722,-3.982468542173375,1.2598714167045153,-3.391041714511421,0.03915916991066637,1.573469387755102,0.6355382619974059
-3.265404592917176,0.03705712477208881,-4.013846386562425,1.258889184874336,-4.013668634766681,1.2589832393307552,-3.4096284449733125,0.03857436560162296,1.5755102040816327,0.6347150259067358
-3.2795188950259266,0.03672271580625937,-4.04496271091256,1.2579922904958885,-4.044785433797664,1.258100922179966,-3.4278324022470668,0.03795741618970766,1.5775510204081633,0.6338939197930142
-3.2933814568503434,0.036363293430820245,-4.075995347135445,1.2571012065966105,-4.075819332970525,1.2572242866778487,-3.445610158468854,0.037309635024272605,1.579591836734694,0.6330749354005167
-3.3069598654060663,0.035979710850405064,-4.106944691427344,1.2562158196686222,-4.106770715912871,1.2563531535500478,-3.4629150854613258,0.036632399367135485,1.5816326530612246,0.632258064516129
-3.320220689762765,0.035572871953968146,-4.137811133414308,1.255336014244368,-4.137639956251254,1.2554873435339273,-3.4796968788975775,0.035927151573090496,1.5836734693877552,0.6314432989690721
-3.333129315351427,0.03514373073373758,-4.168595056124339,1.2544616733203549,-4.1684274177279015,1.254626678061151,-3.495901024210676,0.03519540095914566,1.5857142857142859,0.6306306306306306
-3.345649772366181,0.03469329098760135,-4.199296835983205,1.2535926787655214,-4.19913345435316,1.253770979906989,-3.5114681959968834,0.03443872647356516,1.5877551020408165,0.6298200514138816
-3.3577445583735965,0.03422260632358675,-4.229916842829323,1.2527289117132236,-4.2297584105879364,1.252920073804677,-3.5263335819402024,0.033658780293706184,1.5897959183673471,0.6290115532734274
-3.369374455566019,0.03373278048461011,-4.260455439943925,1.251870252938121,-4.260302621550975,1.2520737870257188,-3.540426121689894,0.03285729250261737,1.5918367346938775,0.6282051282051282
-3.3804983435196987,0.03322496801096,-4.290912984093915,1.2510165832209272,-4.290766413247106,1.251231949928672,-3.5536676508055773,0.032036077019028046,1.5938775510204082,0.6274007682458387
-3.3910730088535628,0.03270037525677896,-4.321289825586844,1.2501677837044078,-4.321150102814646,1.2503943964797946,-3.565971940053063,0.03119703898401477,1.5959183673469388,0.6265984654731458
-3.4010529538837155,0.03216026177537834,-4.351586308339117,1.249323736243305,-4.351453998791795,1.2495609647482324,-3.5772436213486767,0.03034218384036623,1.5979591836734695,0.6257982120051085
-3.410390207259081,0.03160594208632656,-4.381802769959831,1.2484843237492622,-4.381678401403308,1.248731497376969,-3.587376994015083,0.029473628377467434,1.6,0.625
