s11a,s11m,s21a,s21m,s12a,s12m,s22a,s22m,wavelengths,freqs
-3.140197158905482,0.015001528413560816,-1.5283002608978127,1.0000134363446702,-1.5283003240225983,1.0000136251474092,-3.140073914964065,0.014995135330919139,1.5,0.6666666666666666
-3.140123787100375,0.014963305916270988,-1.5639314849079384,1.0000130595842127,-1.5639315550038901,1.000013244860597,-3.139968858062558,0.014957091219369247,1.5020408163265306,0.6657608695652174
-3.1400515313591235,0.014925238668852129,-1.5994645028813441,1.0000127276176005,-1.5994645797228824,1.0000129089530059,-3.139865927791152,0.014919235888524209,1.5040816326530613,0.6648575305291723
-3.1399802268032255,0.014887323919880307,-1.634899722942325,1.0000124356819835,-1.6348998062916031,1.0000126126338538,-3.139765121776962,0.014881564956751478,1.506122448979592,0.6639566395663956
-3.1399097065657475,0.014849559234414502,-1.6702375506014526,1.0000121780738778,-1.67023764017533,1.0000123501757383,-3.139666429465891,0.014844074205435532,1.5081632653061225,0.6630581867388362
-3.1398398029178556,0.014811942497640285,-1.7054783889367946,1.0000119484975056,-1.7054784843830522,1.0000121152815775,-3.1395698317111336,0.014806759573523936,1.510204081632653,0.6621621621621622
-3.139770348287036,0.014774471909624972,-1.7406226387444474,1.000011740378752,-1.7406227396355047,1.000011901408165,-3.1394752996480673,0.01476961715611088,1.5122448979591836,0.6612685560053981
-3.1397011760153775,0.014737145973663593,-1.7756706986556685,1.0000115471492252,-1.7756708045011274,1.0000117020485255,-3.139382793291682,0.014732643211220243,1.5142857142857142,0.6603773584905661
-3.139632120785482,0.014699963479740162,-1.8106229652244998,1.0000113625070328,-1.8106230754976078,1.000011510980315,-3.1392922603475957,0.014695834174772436,1.5163265306122449,0.6594885598923285
-3.1395630187380874,0.014662923487374408,-1.845479832995252,1.00001118065455,-1.8454799471637513,1.0000113224870983,-3.1392036356111714,0.014659186680119807,1.5183673469387755,0.6586021505376344
-3.1394937074052263,0.014626025309462042,-1.880241694560123,1.0000109965118151,-1.8802418121115638,1.0000111315562779,-3.1391168411238914,0.014622697576572924,1.5204081632653061,0.6577181208053691
-3.139424025617811,0.014589268498409184,-1.914908940615283,1.0000108058993944,-1.914909061069854,1.000010934051827,-3.139031786996859,0.014586363941724134,1.5224489795918368,0.6568364611260054
-3.1393538135538814,0.014552652834323417,-1.9494819600203008,1.0000106056806644,-1.9494820829283075,1.0000107268571827,-3.1389483726338523,0.014550183083575067,1.5244897959183674,0.6559571619812583
-3.1392829130236253,0.014516178313802733,-1.9839611398596626,1.0000103938575582,-1.983961264787315,1.0000105079772434,-3.1388664879906774,0.014514152533325832,1.526530612244898,0.6550802139037433
-3.139211168016082,0.014479845137528927,-2.018346865502048,1.000010169613188,-2.018346992011518,1.0000102765946113,-3.1387860145593796,0.014478270029790026,1.5285714285714287,0.6542056074766355
-3.139138425440924,0.01444365369548002,-2.052639520649649,1.0000099333025236,-2.0526396482817804,1.0000100330726789,-3.138706825901381,0.014442533501298704,1.530612244897959,0.6533333333333333
-3.1390645359529445,0.01440760454863784,-2.086839487370384,1.0000096863955326,-2.086839615636659,1.0000097789073283,-3.138628787750355,0.01440694104989855,1.5326530612244897,0.6524633821571239
-3.1389893547280976,0.01437169840893118,-2.120947146108511,1.0000094313816563,-2.1209472744949363,1.0000095166338183,-3.1385517578633766,0.014371490941192486,1.5346938775510204,0.6515957446808511
-3.1389127436843873,0.014335933774687799,-2.1549628756338297,1.0000091716745956,-2.1549630036163423,1.0000092497223234,-3.1384755866455287,0.01433618013870638,1.536734693877551,0.650730411686587
-3.138834565647075,0.014300316265401649,-2.1888870531759523,1.0000089113450343,-2.188887180238958,1.0000089823217202,-3.1384001152562147,0.014301009264331699,1.5387755102040817,0.649867374005305
-3.1387546940455886,0.014264844591214885,-2.2227200540402925,1.0000086553022411,-2.222720179778277,1.000008719276289,-3.1383251766158615,0.014265978290879435,1.5408163265306123,0.6490066225165563
-3.138673006988346,0.014229519864643944,-2.256462252025707,1.0000084085797059,-2.256462375858942,1.0000084659806812,-3.138250602947518,0.014231082583271513,1.542857142857143,0.6481481481481481
-3.1385893891412993,0.014194343261523905,-2.290114018864506,1.0000081768999616,-2.2901141404039502,1.0000082279690885,-3.138176216380515,0.014196323959431713,1.5448979591836736,0.6472919418758256
-3.1385037322232914,0.01415931601269345,-2.3236757244842634,1.000007966088082,-2.323675843584064,1.000008010814636,-3.1381018394205764,0.014161701732122682,1.5469387755102042,0.646437994722955
-3.138415935704362,0.01412443939711096,-2.35714773712787,1.000007781749962,-2.357147853241643,1.0000078206736527,-3.138027297492879,0.014127212634576563,1.5489795918367348,0.6455862977602107
-3.138325907695525,0.014089714723649005,-2.390530422788875,1.0000076298248668,-2.390530535711039,1.0000076630594785,-3.1379524110826984,0.01409285935736166,1.5510204081632653,0.6447368421052632
-3.1382335647186643,0.01405514430108567,-2.4238241457628953,1.0000075157035067,-2.423824255056278,1.0000075436401779,-3.1378770088871435,0.014058639739414621,1.5530612244897959,0.6438896189224704
-3.138138838163447,0.014020726990761284,-2.4570292681718535,1.0000074446225355,-2.4570293737196396,1.0000074672972032,-3.1378009196657115,0.014024554692523188,1.5551020408163265,0.6430446194225722
-3.1380416653990717,0.013986466086100767,-2.490146150329395,1.000007421082806,-2.4901462517457817,1.0000074388753666,-3.137723977786381,0.01399060388141541,1.5571428571428572,0.6422018348623854
-3.137941998199625,0.013952362932650496,-2.5231751504221367,1.0000074490245838,-2.5231752473978513,1.000007462279778,-3.1376460217163618,0.013956787434414798,1.5591836734693878,0.6413612565445026
-3.137839801047505,0.01391841869073056,-2.5561166245643396,1.0000075316000925,-2.556116716814046,1.0000075407127509,-3.1375668951129554,0.01392310560295961,1.5612244897959184,0.6405228758169934
-3.1377350511818105,0.013884634460648554,-2.588970926633487,1.000007671210687,-2.5889710140119035,1.0000076765113857,-3.137486447845244,0.013889558768220197,1.563265306122449,0.639686684073107
-3.137627736506533,0.013851012770680123,-2.621738408674612,1.0000078689884877,-2.6217384908317336,1.000007871087205,-3.1374045373922543,0.013856147447170737,1.5653061224489797,0.6388526727509778
-3.137517862361714,0.013817552930605326,-2.654419419945072,1.000008125691253,-2.654419496884126,1.000008124904903,-3.1373210305194217,0.013822872294397428,1.5673469387755103,0.6380208333333333
-3.137405444216424,0.013784256250851687,-2.687014307802472,1.0000084407989467,-2.6870143795118735,1.0000084374977674,-3.137235805045397,0.013789734098327816,1.569387755102041,0.6371911573472041
-3.1372905077455706,0.013751125916491021,-2.719523417373255,1.0000088129131655,-2.7195234837175564,1.0000088075724518,-3.1371487510525573,0.013756734021298725,1.5714285714285714,0.6363636363636364
-3.1371730968983793,0.01371816195412559,-2.7519470913743764,1.0000092399298233,-2.7519471524266215,1.0000092328215369,-3.1370597729502623,0.01372387302377583,1.573469387755102,0.6355382619974059
-3.1370532672882017,0.013685365803936643,-2.7842856703306085,1.0000097189822825,-2.7842857260569964,1.0000097104411636,-3.136968791772187,0.013691150893044783,1.5755102040816327,0.6347150259067358
-3.1369310891729216,0.01365273852833795,-2.8165394925165605,1.0000102465961576,-2.8165395429368454,1.000010236929289,-3.1368757382171912,0.01365857063960007,1.5775510204081633,0.6338939197930142
-3.1368066468197022,0.01362028122939246,-2.8487088942280803,1.0000108185803074,-2.848708939189337,1.000010808254031,-3.136780561431304,0.013626132819433498,1.579591836734694,0.6330749354005167
-3.136680038134694,0.013587995093123655,-2.8807942095461265,1.000011430397543,-2.880794249129663,1.0000114196958645,-3.1366832231603827,0.013593838874430908,1.5816326530612246,0.632258064516129
-3.1365513751239082,0.013555880766787652,-2.9127957702785725,1.0000120773478305,-2.9127958046043823,1.0000120665876628,-3.13658369829158,0.013561690468946857,1.5836734693877552,0.6314432989690721
-3.1364207813362377,0.013523939324334865,-2.9447139067160975,1.0000127540839179,-2.9447139356615843,1.0000127438259852,-3.1364819773092147,0.01352968795302847,1.5857142857142859,0.6306306306306306
-3.136288391234323,0.013492171962042767,-2.9765489466845065,1.0000134556294764,-2.9765489703760917,1.0000134462500314,-3.1363780621977706,0.013497832755534421,1.5877551020408165,0.6298200514138816
-3.1361543516040387,0.013460578569648742,-3.0083012162953744,1.0000141768861075,-3.0083012350387985,1.0000141687023858,-3.1362719646938197,0.013466128418742888,1.5897959183673471,0.6290115532734274
-3.136018815261988,0.01342916057547276,-3.039971039823859,1.0000149130388751,-3.039971053758579,1.0000149064376502,-3.1361637183983886,0.013434574203712257,1.5918367346938775,0.6282051282051282
-3.1358819430385063,0.013397919232652305,-3.07155873974086,1.0000156597429624,-3.071558749018841,1.0000156550830999,-3.1360533645380033,0.013403173057541764,1.5938775510204082,0.6274007682458387
-3.135743909402823,0.01336685220884934,-3.1030646365485364,1.000016413425667,-3.1030646415838135,1.000016410830976,-3.1359409644690985,0.0133719248135276,1.5959183673469388,0.6265984654731458
-3.1356048843980586,0.013335962707298912,-3.134489049489033,1.0000171712094266,-3.134489050576028,1.0000171708539758,-3.1358265844629267,0.013340833857960229,1.5979591836734695,0.6257982120051085
-3.1354650486931828,0.013305251003930037,-3.1658322963232743,1.0000179311394983,-3.1658322933855696,1.000017933368211,-3.1357103142341134,0.01330989879613402,1.6,0.625
