s11a,s11m,s21a,s21m,s12a,s12m,s22a,s22m,wavelengths,freqs
-3.1410082062399787,0.014996913409210605,-2.9167911628715775,1.000033094666762,-2.916789551104842,1.0000358586785465,-3.141075350828223,0.014998081404380062,1.5,0.6666666666666666
-3.140911106322506,0.014957825740605531,-2.950326113718847,1.0000344753653003,-2.950324417559499,1.0000373200392574,-3.140972203689803,0.0149588900599655,1.5020408163265306,0.6657608695652174
-3.1408110537408676,0.014918929138989566,-2.983768659137355,1.0000358176130693,-2.9837668828320716,1.000038738806577,-3.1408654783501837,0.014919891959578383,1.5040816326530613,0.6648575305291723
-3.140708075468408,0.01488022482311397,-3.017119180789585,1.0000371252517064,-3.017117327527236,1.0000401195849722,-3.140755208242286,0.014881088979213185,1.506122448979592,0.6639566395663956
-3.1406022118875296,0.014841714002252936,-3.0503780582081172,1.0000384020606436,-3.0503761300943175,1.0000414669063735,-3.140641446582241,0.014842482966183063,1.5081632653061225,0.6630581867388362
-3.140493516143181,0.014803397871395733,-3.083545668961315,1.0000396516458832,-3.083543667032841,1.000042785093663,-3.1405242653284087,0.014804075722275357,1.510204081632653,0.6621621621621622
-3.140382053498269,0.014765277604444032,-3.1166223887934232,1.0000408773483151,-3.116620313067545,1.000044078148409,-3.1404037539158556,0.014765868986582222,1.5122448979591836,0.6612685560053981
-3.1402679006868275,0.014727354345424996,-3.1496085917386507,1.0000420821723113,-3.149606441292068,1.0000453496633368,-3.1402800178171804,0.014727864418700781,1.5142857142857142,0.6603773584905661
-3.140151145259815,0.014689629197923847,-3.182504650209944,1.0000432687345497,-3.182502423281711,1.0000466027592316,-3.1401531769880764,0.014690063582805878,1.5163265306122449,0.6594885598923285
-3.1400318849085975,0.01465210321287003,-3.2153109350634828,1.0000444392324417,-3.2153086291762314,1.0000478400452741,-3.1400233642470097,0.014652467933025801,1.5183673469387755,0.6586021505376344
-3.139910226762355,0.014614777375193937,-3.248027815640847,1.0000455954309333,-3.2480254277345324,1.0000490636013815,-3.1398907236471865,0.014615078800085717,1.5204081632653061,0.6577181208053691
-3.1397862866435724,0.014577652589623973,-3.280655659790766,1.0000467386660938,-3.280653186363481,1.000050274980491,-3.1397554088786843,0.014577897380119928,1.5224489795918368,0.6568364611260054
-3.13966018828418,0.014540729666395776,-3.313194833872925,1.00004786986352,-3.313192271123354,1.0000514752288463,-3.1396175817461676,0.014540924724344826,1.5244897959183674,0.6559571619812583
-3.139532062494174,0.014504009306778299,-3.3456457027460793,1.0000489895695248,-3.345643046712887,1.0000526649216765,-3.1394774107445036,0.014504161730716437,1.526530612244898,0.6550802139037433
-3.139402046293146,0.014467492089877581,-3.378008629743259,1.0000500979926696,-3.378005876436985,1.0000538442118785,-3.1393350697578373,0.014467609136691154,1.5285714285714287,0.6542056074766355
-3.139270282008171,0.014431178460321669,-3.4102839766362973,1.0000511950535182,-3.4102811221602214,1.0000550128890302,-3.1391907368894434,0.014431267513565224,1.530612244897959,0.6533333333333333
-3.1391369163546368,0.01439506871720105,-3.4424721035920527,1.000052280440329,-3.442469144249034,1.0000561704463689,-3.139044593427181,0.014395137261092789,1.5326530612244897,0.6524633821571239
-3.1390020995112478,0.014359163005465938,-3.474573369122835,1.0000533536683565,-3.4745703015059672,1.0000573161529618,-3.1388968229354766,0.014359218603593496,1.5346938775510204,0.6515957446808511
-3.1388659849736,0.014323459846458405,-3.506588130002419,1.0000544141551657,-3.50658495107153,1.0000584491544993,-3.138747612067255,0.01432350933087431,1.536734693877551,0.650730411686587
-3.1387287264625865,0.014287961089617973,-3.5385167413371628,1.0000554612355221,-3.538513448458651,1.0000595684477498,-3.1385971435995685,0.014288013717312632,1.5387755102040817,0.649867374005305
-3.138590478361532,0.014252666696607793,-3.5703595563082655,1.0000564942621601,-3.570356147316944,1.0000606731030215,-3.1384456049836733,0.01425272937575307,1.5408163265306123,0.6490066225165563
-3.138451396815326,0.01421757526905764,-3.6021169262703783,1.000057512669114,-3.602113399470611,1.0000617622397183,-3.1382931820218443,0.014217655714199563,1.542857142857143,0.6481481481481481
-3.1383116365712524,0.014182686121763925,-3.633789200649037,1.0000585159942286,-3.6337855548188656,1.0000628351024456,-3.1381400588654484,0.014182792714505631,1.5448979591836736,0.6472919418758256
-3.138171351180197,0.014147998406357554,-3.6653767268995625,1.0000595039349187,-3.6653729612950015,1.0000638911698962,-3.137986421353781,0.014148137483113575,1.5469387755102042,0.646437994722955
-3.138030692491571,0.014113511116408677,-3.696879850465946,1.000060476386782,-3.696875964773014,1.0000649301052802,-3.1378324491438847,0.01411369097786518,1.5489795918367348,0.6455862977602107
-3.13788980982099,0.014079223450094701,-3.72829891474449,1.000061433469178,-3.7282949090615545,1.000065951896461,-3.137678322721545,0.014079451274058834,1.5510204081632653,0.6447368421052632
-3.1377488517146443,0.014045133024973728,-3.7596342610641114,1.0000623755779054,-3.7596301358476722,1.0000669568358178,-3.137524219205024,0.014045416976037233,1.5530612244897959,0.6438896189224704
-3.137607961486842,0.014011239493753153,-3.7908862286505265,1.000063303342097,-3.7908819846744306,1.000067945550877,-3.1373703127380925,0.014011586482889945,1.5551020408163265,0.6430446194225722
-3.137467281270231,0.013977540922871132,-3.822055154630608,1.000064217690418,-3.822050792920647,1.0000689189950758,-3.1372167727696394,0.013977958979449956,1.5571428571428572,0.6422018348623854
-3.137326949750454,0.013944035627765194,-3.853141374021175,1.0000651198202533,-3.853136895812212,1.0000698785311364,-3.1370637698775004,0.013944529738441527,1.5591836734693878,0.6413612565445026
-3.137187101227012,0.01391072275787128,-3.8841452197336235,1.000066011176746,-3.884140626390213,1.000070825746627,-3.1369114629136283,0.013911299521158164,1.5612244897959184,0.6405228758169934
-3.137047871851159,0.013877597587824865,-3.9150670225995663,1.0000668935244519,-3.9150623155595876,1.0000717626017994,-3.1367600110825355,0.013878265198430176,1.563265306122449,0.639686684073107
-3.1369093855666055,0.013844661909073191,-3.94590711136815,1.000067768726173,-3.945902292093372,1.000072691304232,-3.1366095668909324,0.013845424786114327,1.5653061224489797,0.6388526727509778
-3.1367717719464716,0.013811910814484744,-3.9766658127657255,1.0000686389636408,-3.976660882670162,1.00007361431585,-3.136460279355953,0.01381277496827809,1.5673469387755103,0.6380208333333333
-3.136635153234002,0.013779342166569553,-4.007343451511986,1.000069506518757,-4.0073384119077025,1.0000745342462483,-3.1363122895873454,0.013780313959378024,1.569387755102041,0.6371911573472041
-3.1364996451491267,0.013746955646584806,-4.037940350370813,1.0000703737440588,-4.03793520241385,1.000075453830305,-3.136165732937724,0.01374803983360678,1.5714285714285714,0.6363636363636364
-3.1363653636250906,0.013714748045929901,-4.068456830202664,1.0000712431118994,-4.068451574838246,1.0000763759318105,-3.1360207434827916,0.013715947642923772,1.573469387755102,0.6355382619974059
-3.1362324190806645,0.013682717053618754,-4.098893210015555,1.0000721170857405,-4.0988878479283155,1.0000773033194497,-3.13587744219465,0.013684036895268084,1.5755102040816327,0.6347150259067358
-3.136100917480474,0.01365086032007583,-4.129249807024391,1.0000729980848746,-4.129244338595519,1.0000782387405112,-3.135735946939261,0.013652305068540028,1.5775510204081633,0.6338939197930142
-3.1359709599928,0.013619175466075798,-4.159526936711865,1.0000738884288267,-4.159521361972469,1.0000791848843786,-3.1355963745337116,0.013620746556286598,1.579591836734694,0.6330749354005167
-3.135842642387193,0.013587660231140842,-4.189724912891316,1.0000747902786542,-4.189719231497506,1.0000801441192997,-3.1354588260476,0.013589361444104001,1.5816326530612246,0.632258064516129
-3.1357160557950015,0.013556311786077664,-4.219844047767307,1.0000757055988336,-4.219838258971858,1.0000811186303593,-3.135323401251995,0.013558146750632398,1.5836734693877552,0.6314432989690721
-3.1355912839994766,0.013525128135145094,-4.24988465200172,1.0000766360744886,-4.249878754624225,1.0000821103425543,-3.135190197047065,0.013527097534093141,1.5857142857142859,0.6306306306306306
-3.135468405266464,0.013494106779620967,-4.27984703476962,1.0000775830954132,-4.279841027210746,1.0000831207035232,-3.135059294858609,0.013496213942403424,1.5877551020408165,0.6298200514138816
-3.13534749122551,0.013463245184875098,-4.309731503816644,1.000078547705305,-4.309725384037266,1.0000841508974578,-3.134930779501408,0.013465490485185421,1.5897959183673471,0.6290115532734274
-3.135228604810774,0.013432541744694047,-4.33953836551797,1.0000795305454562,-4.339532131075456,1.000085201560077,-3.1348047201007456,0.013434926547778206,1.5918367346938775,0.6282051282051282
-3.13511180522185,0.01340199283401255,-4.369267924906595,1.0000805319012935,-4.369261572992554,1.0000862729159585,-3.134681181782239,0.013404519716847878,1.5938775510204082,0.6274007682458387
-3.134997141753476,0.013371596156753972,-4.398920485734836,1.0000815516079289,-4.398914013190417,1.0000873647963622,-3.1345602276862095,0.013374264669553588,1.5959183673469388,0.6265984654731458
-3.1348846535357873,0.01334135069105705,-4.428496350514029,1.0000825890469045,-4.428489753924421,1.0000884764300242,-3.1344419025364285,0.013344161571757438,1.5979591836734695,0.6257982120051085
-3.134774373724319,0.013311254327274667,-4.457995820523114,1.00008364321252,-4.457989096282905,1.0000896066622158,-3.1343262479334095,0.013314207714481215,1.6,0.625
