s11a,s11m,s21a,s21m,s12a,s12m,s22a,s22m,wavelengths,freqs
3.0528331312316155,0.03703468637347878,2.1275460383695695,0.9999623395920216,2.12796899655826,1.000053843558691,2.8746378866223603,0.041020863251811625,1.5,0.6666666666666666
3.049268135015795,0.03685497389020951,2.114543576333343,0.9999676813778554,2.1149673309885273,1.0000683621723485,2.8673290224210337,0.040658698016798965,1.5020408163265306,0.6657608695652174
3.0457403026809953,0.03667280880754194,2.101578290790616,0.999973082097498,2.1020025456822196,1.000082950088658,2.860105961759853,0.04029183537653062,1.5040816326530613,0.6648575305291723
3.042251645878386,0.03648824929692312,2.0886500163424753,0.9999785363961564,2.0890744772110166,1.0000975929686748,2.852972200003147,0.03992040743734233,1.506122448979592,0.6639566395663956
3.0388041989383363,0.036301354281024274,2.0757585889120884,0.9999840394064019,2.076182963198539,1.0001122772034226,2.845931402530878,0.03954454706473942,1.5081632653061225,0.6630581867388362
3.0354000221988198,0.03611218346123055,2.062903845435475,0.9999895860500166,2.063327842147848,1.0001269886206574,2.8389874118817757,0.03916438821492365,1.510204081632653,0.6621621621621622
3.0320412052297407,0.03592079739705913,2.0500856239889744,0.9999951718675455,2.050508953795036,1.0001417135656312,2.8321442539074146,0.038780066199171646,1.5122448979591836,0.6612685560053981
3.028729869121957,0.03572725762556048,2.0373037635658013,1.0000007925992573,2.037726139130974,1.0001564383384007,2.8254061439735985,0.03839171787261344,1.5142857142857142,0.6603773584905661
3.0254681673268844,0.035531626795379356,2.0245581040271974,1.0000064441916536,2.024979240524892,1.0001711493941587,2.818777494198068,0.03799948176329124,1.5163265306122449,0.6594885598923285
3.022258284991626,0.035333968786373675,2.0118484860815706,1.0000121227027523,2.012268101757315,1.000185833462966,2.8122629223607323,0.03760349817388196,1.5183673469387755,0.6586021505376344
3.019102437164763,0.03513434879168102,1.9991747513153202,1.0000178242164066,1.9995925679805642,1.0002004776596405,2.805867262597098,0.03720390929287894,1.5204081632653061,0.6577181208053691
3.0160028665247673,0.034932833351898396,1.9865367422591735,1.000023544789901,1.9869524856264822,1.0002150695460146,2.7995955774785544,0.036800859343596615,1.5224489795918368,0.6568364611260054
3.01296184131455,0.03472949034592385,1.973934302464599,1.000029280446489,1.9743477022969635,1.0002295971271065,2.7934531707374575,0.036394494784448936,1.5244897959183674,0.6559571619812583
3.009981653995495,0.03452438895445106,1.9613672765643402,1.0000350272086234,1.9617780666754638,1.0002440487856004,2.7874455998364414,0.03598496455299727,1.526530612244898,0.6550802139037433
3.0070646207910543,0.034317599619254964,1.9488355102984045,1.000040781154574,1.9492434284876088,1.0002584131785754,2.7815786877673583,0.035572420332224984,1.5285714285714287,0.6542056074766355
3.0042130819385084,0.03410919401633445,1.9363388505001704,1.000046538476535,1.9367436385207246,1.0002726791303234,2.7758585338640605,0.03515701681142189,1.530612244897959,0.6533333333333333
3.0014294021935557,0.03389924505648795,1.9238771450496375,1.0000522955181794,1.9242785486925817,1.0002868355543362,2.7702915238551897,0.03473891191482986,1.5326530612244897,0.6524633821571239
2.9987159710220666,0.033687826912716226,1.911450242811077,1.0000580487792583,1.9118480121442087,1.0003008714256423,2.7648843397446536,0.0343182669835681,1.5346938775510204,0.6515957446808511
2.9960752019978165,0.03347501506449634,1.8990579935756349,1.0000637948856914,1.8994518833256324,1.0003147758076574,2.7596439702764384,0.03389524691059958,1.536734693877551,0.650730411686587
2.9935095311548787,0.033260886342164356,1.8867002480262307,1.000069530534872,1.8870900180472616,1.0003285379205487,2.7545777226730146,0.033470020243165505,1.5387755102040817,0.649867374005305
2.991021414346645,0.03304551895361607,1.8743768577337692,1.000075252433209,1.8747622734817364,1.0003421472265441,2.7496932360656787,0.033042759275912145,1.5408163265306123,0.6490066225165563
2.9886133239357866,0.032828992480501425,1.8620876751833046,1.0000809572444602,1.8624685081171137,1.000355593504247,2.744998496647132,0.03261364015989254,1.542857142857143,0.6481481481481481
2.986287745303788,0.03261138783965394,1.8498325538191716,1.0000866415632221,1.8502085816764773,1.0003688668897832,2.740501854200562,0.03218284304650593,1.5448979591836736,0.6472919418758256
2.984047173674548,0.03239278721465318,1.8376113480929932,1.0000923019198749,1.8379823550281869,1.0003819578746005,2.7362120393954377,0.031750552274421986,1.5469387755102042,0.646437994722955
2.9818941116010076,0.03217327397155529,1.8254239134976695,1.0000979348129628,1.8257896901117572,1.0003948572644896,2.7321381811753964,0.03131695659465711,1.5489795918367348,0.6455862977602107
2.9798310672224018,0.03195293257281738,1.8132701065762444,1.0001035367585602,1.8136304498975275,1.0004075561162211,2.7282898237003317,0.03088224941886234,1.5510204081632653,0.6447368421052632
2.977860553126663,0.03173184850593224,1.8011497849012843,1.000109104340143,1.801504498386421,1.0004200456754377,2.724676942600029,0.030446629070273536,1.5530612244897959,0.6438896189224704
2.975985085447759,0.03151010823396347,1.7890628070301657,1.0001146342448133,1.7894117006423627,1.000432317337238,2.7213099606357374,0.03001029902077238,1.5551020408163265,0.6430446194225722
2.974207182738124,0.03128779916866779,1.7770090324478154,1.0001201232760244,1.7773519228404593,1.0004443626452322,2.718199763191176,0.029573468101075355,1.5571428571428572,0.6422018348623854
2.972529364211146,0.03106500965849692,1.7649883215116957,1.0001255683408836,1.7653250323094116,1.0004561733629895,2.7153577096407204,0.02913635034361332,1.5591836734693878,0.6413612565445026
2.970954147130146,0.03084182897859154,1.753000535412174,1.0001309664179228,1.75333089753915,1.0004677413832301,2.7127956725075264,0.02869916687479871,1.5612244897959184,0.6405228758169934
2.9694840433627427,0.030618347308835604,1.7410455361562442,1.0001363145170532,1.7413693881700054,1.0004790591336143,2.7105260104379156,0.02826214265739143,1.563265306122449,0.639686684073107
2.968121555362658,0.03039465568924548,1.7291231865750547,1.0001416096454736,1.7294403749161817,1.0004901193281346,2.708561631871873,0.027825510136689224,1.5653061224489797,0.6388526727509778
2.966869171996104,0.030170845948602885,1.7172333503485067,1.0001468487911618,1.7175437294815024,1.0005009151747075,2.7069159918216306,0.027389507775791248,1.5673469387755103,0.6380208333333333
2.965729364666423,0.029947010609942235,1.7053758920352569,1.0001520289303834,1.7056793244583557,1.000511440351624,2.705603115057699,0.026954380707759105,1.569387755102041,0.6371911573472041
2.964704584085459,0.02972324278327344,1.6935506770948368,1.0001571470579163,1.6938470332400115,1.0005216889794915,2.704637613196105,0.026520381095501096,1.5714285714285714,0.6363636363636364
2.963797257831943,0.029499636059613445,1.6817575718913973,1.000162200232668,1.6820467299623298,1.0005316555686141,2.704034699086014,0.026087768530284036,1.573469387755102,0.6355382619974059
2.9630097885840634,0.029276284419937126,1.6699964436739627,1.0001671856263419,1.6702782894830528,1.000541334960235,2.70381019760141,0.025656810449706437,1.5755102040816327,0.6347150259067358
2.962344552685027,0.029053282168402795,1.6582671605351385,1.0001721005622293,1.6585415873959748,1.0005507222816408,2.7039805522317666,0.025227782555589513,1.5775510204081633,0.6338939197930142
2.961803898572237,0.028830723892133123,1.6465695913566363,1.0001769425339915,1.6468365000672978,1.0005598129305167,2.7045628271481603,0.02480096921741121,1.579591836734694,0.6330749354005167
2.9613901446005166,0.028608704442292257,1.634903605753906,1.000181709199986,1.6351629046755525,1.0005686025951621,2.705574704577611,0.024376663855873476,1.5816326530612246,0.632258064516129
2.961105575928311,0.028387318925210146,1.6232690740326543,1.000186398355562,1.6235206792350079,1.000577087305209,2.707034477219509,0.02395516931351314,1.5836734693877552,0.6314432989690721
2.960952440370653,0.02816666268905029,1.6116658671671111,1.0001910078922462,1.6119097025893043,1.000585263500262,2.7089610351732425,0.023536798224241408,1.5857142857142859,0.6306306306306306
2.9609329433777885,0.027946831294752474,1.6000938568033107,1.0001955357553898,1.6003298543693347,1.0005931280955347,2.711373846225436,0.023121873401842064,1.5877551020408165,0.6298200514138816
2.961049242537783,0.027727920461499085,1.5885529152852798,1.0001999799141177,1.5887810149213772,1.0006006785255843,2.714292927730849,0.02271072826111751,1.5897959183673471,0.6290115532734274
2.9613034420865123,0.02751002598877959,1.5770429156939985,1.0002043383515882,1.5772630652206054,1.0006079127521423,2.717738807634673,0.022303707278198484,1.5918367346938775,0.6282051282051282
2.9616975878863703,0.02729324366128671,1.5655637318870672,1.000208609079614,1.5657758867899285,1.000614829231569,2.7217324716687274,0.021901166483037287,1.5938775510204082,0.6274007682458387
2.962233663154513,0.027077669150077754,1.5541152385260608,1.000212790173721,1.5543193616437792,1.0006214268485334,2.7262952935036595,0.02150347396271705,1.5959183673469388,0.6265984654731458
2.9629135849455515,0.026863397924985793,1.542697311082348,1.000216879818992,1.5428933722704534,1.000627704831768,2.7314489446744714,0.021111010342607005,1.5979591836734695,0.6257982120051085
2.9637392011025123,0.026650525190858754,1.5313098258182218,1.0002208763534406,1.5314978016566347,1.0006336626726304,2.73721528140136,0.020724169205784092,1.6,0.625
