s11a,s11m,s21a,s21m,s12a,s12m,s22a,s22m,wavelengths,freqs
3.005690400425125,0.0353537299128881,-1.2535329579056091,1.0000427114511257,-1.2531188865857672,1.000311707694417,2.7800161618131334,0.03636036969201436,1.5,0.6666666666666666
2.997082381728115,0.03472479876979681,-1.3098904301422525,1.0000621151757196,-1.3094875330360936,1.0003610372618674,2.7625634279932694,0.03486683353394979,1.5020408163265306,0.6657608695652174
2.990022043082563,0.034068900821020924,-1.3660882945977455,1.0000817963134372,-1.3656998992909746,1.0004091772042494,2.748586887643535,0.033324708702034696,1.5040816326530613,0.6648575305291723
2.9846667525646273,0.03339230939672312,-1.4221272646398109,1.0001015052494786,-1.4217564813575971,1.0004555175933758,2.738687123414913,0.03174784872811645,1.506122448979592,0.6639566395663956
2.981171947057683,0.03270175263400563,-1.478008023414035,1.0001209968757094,-1.477657709068411,1.0004994832541316,2.73356679731808,0.030151911744846945,1.5081632653061225,0.6630581867388362
2.9796877984349646,0.03200440379364051,-1.5337312247600994,1.0001400329752017,-1.5334039508246502,1.0005405394606088,2.7340409595389685,0.028554754314493128,1.510204081632653,0.6621621621621622
2.980354621749871,0.0313078603427963,-1.589297494245089,1.0001583845182362,-1.5889955187153342,1.0005781971333945,2.741039107514528,0.02697689832551579,1.5122448979591836,0.6612685560053981
2.983296871550128,0.03062010654884956,-1.6447074303318554,1.000175833886023,-1.6444326739979798,1.000612017522243,2.755589815432885,0.025442046037666602,1.5142857142857142,0.6603773584905661
2.9886156540256823,0.029949453685526504,-1.6999616057077203,1.000192177024013,-1.6997156329242826,1.0006416163500327,2.7787731290909066,0.02397757315091958,1.5163265306122449,0.6594885598923285
2.9963798281951437,0.029304451669827293,-1.7550605687988727,1.0002072255118297,-1.754844572889353,1.0006666673880122,2.8116196649548617,0.02261484948472528,1.5183673469387755,0.6586021505376344
3.0066159920239413,0.02869376633122309,-1.8100048454903315,1.000220808522934,-1.8098196388771335,1.0006869054287277,2.8549325583527962,0.021389115277563438,1.5204081632653061,0.6577181208053691
3.019297949926212,0.02812601793092026,-1.8647949410604396,1.0002327746391106,-1.8646409501683128,1.0007021286188122,2.9090186606164026,0.02033850129877345,1.5224489795918368,0.6568364611260054
3.0343366130254177,0.027609579368686757,-1.9194313423270564,1.0002429934791033,-1.9193086072688452,1.0007122001132385,2.9733531321117734,0.019501715770089776,1.5244897959183674,0.6559571619812583
3.0515716336703065,0.027152336956237307,-1.9739145200212747,1.0002513569711973,-1.9738226989540228,1.0007170491067112,3.0462736171062925,0.018914116369076618,1.526530612244898,0.6550802139037433
3.0707663223339328,0.026761422593812218,-2.0282449311419306,1.000257781156281,-2.028183309743684,1.0007166705308073,3.124876265601496,0.018602541373121395,1.5285714285714287,0.6542056074766355
3.091607413024042,0.02644293301546926,-2.0824230219214446,1.0002622057303634,-2.082390526600112,1.0007111253995329,3.2052807752899746,0.018580215046041012,1.530612244897959,0.6533333333333333
3.113710917882826,0.026201658040716558,-2.1364492302532536,1.00026459592632,-2.1364444466519803,1.0007005383917438,3.283272782103577,0.018843749570239186,1.5326530612244897,0.6524633821571239
3.1366345995937626,0.02604084534893551,-2.1903239886911323,1.0002649420216754,-2.190345183929027,1.0006850961735179,3.3550906979277872,0.019373630875537683,1.5346938775510204,0.6515957446808511
3.159896554060655,0.02596202517762495,-2.2440477271887613,1.0002632595126053,-2.2440928762040593,1.0006650439832143,3.4180189331760373,0.02013801765997747,1.536734693877551,0.650730411686587
3.182998290508852,0.025964922742471003,-2.297620875975406,1.000259588558359,-2.2976876913201787,1.0006406819491314,3.470589218301191,0.021098159679603507,1.5387755102040817,0.649867374005305
3.2054497615098367,0.026047465550320607,-2.351043868282992,1.0002539933011643,-2.3511298330652615,1.000612360321822,3.5124323646605893,0.02221349345852538,1.5408163265306123,0.6490066225165563
3.226793394988966,0.026205889378842825,-2.404317143011139,1.0002465607846556,-2.40441954640648,1.0005804741577033,3.543957926596576,0.02344527079207905,1.542857142857143,0.6481481481481481
3.2466243858421517,0.026434929587429393,-2.457441147246197,1.0002373995751876,-2.4575571220124814,1.0005454573977943,3.5660248260361023,0.024758541901896747,1.5448979591836736,0.6472919418758256
3.2646052826249066,0.0267280757941159,-2.510416338596312,1.000226638090766,-2.5105428999816195,1.0005077764783117,3.579686246936952,0.026122870218572163,1.5469387755102042,0.646437994722955
3.2804739929550926,0.027077862561540048,-2.5632431873007895,1.0002144226624379,-2.5633772727219597,1.0004679236019578,3.58602474642491,0.02751227682857278,1.5489795918367348,0.6455862977602107
3.294045419652894,0.027476168653037043,-2.61592217807363,1.000200915363735,-2.6160606869553797,1.0004264098019842,3.5860609658212956,0.028904811528418117,1.5510204081632653,0.6447368421052632
3.30520777248272,0.02791450155630452,-2.668453811648461,1.0001862916506314,-2.6685936448422622,1.0003837579317167,3.580711982747765,0.03028199938336654,1.5530612244897959,0.6438896189224704
3.3139150535477198,0.028384250551335966,-2.7208386060005614,1.000170737862355,-2.7209767042466306,1.0003404957033775,3.5707791445867634,0.03162829354717913,1.5551020408163265,0.6430446194225722
3.3201772987727125,0.02887689877317662,-2.7730770972329974,1.0001544486376286,-2.7732104781802303,1.0002971488881809,3.5569515434973162,0.03293059070863615,1.5571428571428572,0.6422018348623854
3.324049972356858,0.029384191076212863,-2.825169840125942,1.0001376243011806,-2.825295633477401,1.0002542347754886,3.5398166821144637,0.03417782526531633,1.5591836734693878,0.6413612565445026
3.3256235825572307,0.02989825928583668,-2.877117408360666,1.0001204682714209,-2.877232888761873,1.0002122559745519,3.5198735972953292,0.03536063934442615,1.5612244897959184,0.6405228758169934
3.325014225641761,0.030411709449798617,-2.9289203944382876,1.0001031845344246,-2.929023011772051,1.000171694627434,3.4975460058954884,0.036471118448690165,1.563265306122449,0.639686684073107
3.322355442677936,0.030917677195781743,-2.9805794093209093,1.0000859752197797,-2.9806668161144945,1.0001330070901266,3.473194355096715,0.037502580885531316,1.5653061224489797,0.6388526727509778
3.3177915251808683,0.03140985764990292,-3.0320950818250045,1.000069038304359,-3.0321651575164705,1.000096619128222,3.4471263723263386,0.03844941000109252,1.5673469387755103,0.6380208333333333
3.311472242277546,0.03188251485712929,-3.083468057739837,1.0000525655791415,-3.0835189296685472,1.0000629215042565,3.419606070350941,0.03930691995963559,1.569387755102041,0.6371911573472041
3.3035488155078503,0.03233048388493149,-3.1346989990976586,1.0000367400634675,-3.134729059603519,1.000032267105507,3.3908613288569756,0.04007124763474089,1.5714285714285714,0.6363636363636364
3.2941710827441097,0.032749146301619625,-3.1857885824175733,1.0000217353500287,-3.1857965030699593,1.0000049662709645,3.3610902365368367,0.040739264809493574,1.573469387755102,0.6355382619974059
3.2834854552171926,0.0331344219391652,-3.236737497941494,1.0000077127562548,-3.236722239338283,0.9999812859285634,3.3304663888651005,0.04130850622891851,1.5755102040816327,0.6347150259067358
3.2716336885314288,0.03348274011595193,-3.2875464478766045,0.9999948204162652,-3.2875072661532494,0.9999614469405337,3.2991433242937003,0.041777110112899106,1.5775510204081633,0.6338939197930142
3.258752183912814,0.03379101593697548,-3.3382161448580954,0.9999831918433812,-3.3381525945222648,0.9999456230060912,3.2672582601519644,0.04214376855968524,1.579591836734694,0.6330749354005167
3.2449717241167364,0.03405662516741796,-3.3887473102469907,0.9999729447982196,-3.3886592435343643,0.9999339399794878,3.234935266406401,0.042407685895444046,1.5816326530612246,0.632258064516129
3.230417527329667,0.03427737976220173,-3.439140672337924,0.9999641803544802,-3.4390282352508694,0.9999264757334299,3.202287994030957,0.042568543497632255,1.5836734693877552,0.6314432989690721
3.2152095314504416,0.0344515046799704,-3.4893969644983756,0.9999569821710305,-3.4892605897170963,0.9999232605327122,3.1694220564383926,0.04262646997583501,1.5857142857142859,0.6306306306306306
3.1994628411701713,0.03457761636934685,-3.5395169232640584,0.999951415976737,-3.539357320135632,0.9999242778795459,3.136437147573897,0.04258201586580556,1.5877551020408165,0.6298200514138816
3.1832882868462145,0.03465470314240794,-3.589501286418202,0.9999475292671343,-3.589319428230745,0.9999294657955822,3.103428968908792,0.042436132198011865,1.5897959183673471,0.6290115532734274
3.1667930574714704,0.03468210752980703,-3.639350791081381,0.9999453512088644,-3.6391478998294846,0.9999387185062951,3.0704910292843994,0.04219015247137219,1.5918367346938775,0.6282051282051282
3.1500813804180923,0.034659510630884766,-3.6890661718368323,0.9999448927398424,-3.688843700679223,0.9999518885006478,3.037716376320882,0.04184577769770899,1.5938775510204082,0.6274007682458387
3.1332552285376103,0.03458691842008642,-3.7386481589116016,0.9999461468497883,-3.738407772522584,0.9999687889421899,3.0051993155768226,0.04140506430590117,1.5959183673469388,0.6265984654731458
3.1164150410012126,0.03446464994056207,-3.7880974764279425,0.9999490890234559,-3.7878410294524762,0.999989196410868,2.9730371738359387,0.040870414811276574,1.5979591836734695,0.6257982120051085
3.0996604483318815,0.03429332730045053,-3.837414840733876,0.9999536778292265,-3.837144354574173,1.0000128539543203,2.9413321658308416,0.04024457127652233,1.6,0.625
