s11a,s11m,s21a,s21m,s12a,s12m,s22a,s22m,wavelengths,freqs
-3.1054707332462548,0.03810153678574339,2.6202932173059343,0.9999437041742423,2.620484195031043,0.999905137227852,3.127513436326178,0.046046312754701196,1.5,0.6666666666666666
-3.1631197782248974,0.03812092731532169,2.4122573839445662,0.999932315775424,2.412543312761138,0.9999337657402728,3.0088412866622636,0.044939719392969465,1.5020408163265306,0.6657608695652174
-3.2187266441085023,0.03734331189288092,2.2048176518980713,0.999950125040172,2.205173177622091,1.0000277787306695,2.89775276512652,0.04224054818526636,1.5040816326530613,0.6648575305291723
-3.2654448445614075,0.03585383824390668,1.9979592875236254,0.999993729982548,1.9983464896549732,1.0001699206806942,2.8038684575024506,0.03816191312296538,1.506122448979592,0.6639566395663956
-3.2960402070924735,0.033836517089969195,1.7916703142259471,1.0000549724104628,1.7920457034331823,1.0003342666744797,2.7419362798475864,0.03307468067016596,1.5081632653061225,0.6630581867388362
-3.3031772129651245,0.031570773264263496,1.5859432095810788,1.0001227222356674,1.5862656756887676,1.0004913844449064,2.736635984707735,0.027568151437486196,1.510204081632653,0.6621621621621622
-3.2809393456507587,0.029418306114352612,1.3807755465907374,1.0001851094315761,1.3810136395380557,1.0006139764240432,2.826462257563035,0.02259400111402823,1.5122448979591836,0.6612685560053981
-3.228374015616171,0.02778203831163622,1.1761696188277517,1.0002316429295903,1.1763067859080163,1.0006816772732114,3.040289334572355,0.019616648752855154,1.5142857142857142,0.6603773584905661
-3.153993587015743,0.02701237953843704,0.9721313266437644,1.0002548470770578,0.9721682922471159,1.0006841603097727,3.308976269592732,0.020003137577837317,1.5163265306122449,0.6594885598923285
-3.076030739208401,0.027273577338829864,0.7686686463488192,1.0002512719397028,0.7686227483082645,1.0006222867678658,3.492519625858392,0.023448027507983898,1.5183673469387755,0.6586021505376344
-3.0143575038460995,0.02846394515728783,0.5657899324911,1.0002218678739612,0.5656917559746123,1.0005074288092632,3.55613019161447,0.02838639387843981,1.5204081632653061,0.6577181208053691
-2.980782748453858,0.03027218229144963,0.363502234773563,1.0001717449671355,0.3633902620170998,1.0003592831778032,3.537079607350488,0.033522745722826645,1.5224489795918368,0.6568364611260054
-2.9769697928702756,0.03231232427221056,0.1618098075748349,1.0001093390138376,0.1617240193546178,1.0002025762222442,3.4698749563586775,0.03808610040511128,1.5244897959183674,0.6559571619812583
-2.9983984703327056,0.03422901337704998,-0.03928697715703272,1.0000450535208862,-0.03931155433205033,1.000063120407207,3.375328634554424,0.04162067954891385,1.526530612244898,0.6550802139037433
-3.0384402103163146,0.035742636336046935,-0.23979210627226963,0.9999895518795878,-0.23973097723203418,0.9999637349362736,3.2657118226638486,0.04385054363838718,1.5285714285714287,0.6542056074766355
-3.09038917924222,0.036658983588601604,-0.43971366796873673,0.9999519809023018,-0.4395567687196575,0.9999205883784951,3.149025244437668,0.04462319494690944,1.530612244897959,0.6533333333333333
-3.147997391885615,0.03686742833638504,-0.6390628849404643,0.999938450591743,-0.6388161856181553,0.9999405396899359,3.0314875778096733,0.04388935620363923,1.5326530612244897,0.6524633821571239
-3.2053360861316027,0.036337887939363815,-0.8378526144073138,0.9999510488056027,-0.8375370919875266,1.0000199857448833,2.9191674165526655,0.041697746013995375,1.5346938775510204,0.6515957446808511
-3.2564378056767507,0.03511915509066637,-1.03609559364352,0.9999875556862663,-1.0357436677852667,1.0001455050993542,2.819522942472711,0.03819768890825592,1.536734693877551,0.650730411686587
-3.2949450505435487,0.033338822696164415,-1.2338027423584843,1.0000418854241937,-1.2334527690762567,1.0002962299619227,2.7435855314734168,0.033651813561046046,1.5387755102040817,0.649867374005305
-3.3140031760770516,0.0312042021731942,-1.4309818059760158,1.0001051569986465,-1.4306716392867218,1.0004474912294061,2.709751377958827,0.028473113808108616,1.5408163265306123,0.6490066225165563
-3.3068874448698518,0.029001085117116084,-1.6276365545301312,1.0001671967672154,-1.6273973605890437,1.0005750103391675,2.749491818436621,0.02332130974183041,1.542857142857143,0.6481481481481481
-3.2692199275701577,0.027079538927948107,-1.8237666533964922,1.0002182106906676,-1.8236180443049972,1.0006588452063996,2.9051409792289293,0.019289332722783683,1.5448979591836736,0.6472919418758256
-3.203227744066868,0.025803746435736092,-2.0193682049806,1.0002503411222978,-2.019315423025649,1.0006864259119905,3.173075632442192,0.017877146909106037,1.5469387755102042,0.646437994722955
-3.1215137799327426,0.025447114850334396,-2.2144348425648936,1.0002588517915887,-2.2144683044654334,1.0006542592499277,3.425333363791785,0.019791426071880662,1.5489795918367348,0.6455862977602107
-3.0442607574810907,0.026072055790231388,-2.4089591649738877,1.0002427639101952,-2.4090562847060024,1.0005681491552396,3.5561439202233087,0.023970259422819575,1.5510204081632653,0.6447368421052632
-2.989183488714917,0.0274982983974805,-2.602934257307718,1.0002048773366072,-2.603063158710328,1.000442014020921,3.580029353146766,0.0289486747950387,1.5530612244897959,0.6438896189224704
-2.9640670162974536,0.02939526512412466,-2.796355056107044,1.000151221989555,-2.796479566413534,1.0002955621274285,3.5386865963167224,0.03377142646262955,1.5551020408163265,0.6430446194225722
-2.967699536187836,0.03140716777052264,-2.989219373371414,1.0000900675986544,-2.989304547743706,1.0001512125789902,3.4601821918569375,0.037888328297905643,1.5571428571428572,0.6422018348623854
-2.994490688709268,0.03322885534478229,-3.1815284671377664,1.0000306624821063,-3.181545837238833,1.0000307215344932,3.3606023853288463,0.04096985170324156,1.5591836734693878,0.6413612565445026
-3.0378589015746087,0.034630212981854556,-3.3732871143969203,0.9999818813347334,-3.3732188965071317,0.9999519897106931,3.2495225731564195,0.042817842618359504,1.5612244897959184,0.6405228758169934
-3.091611718031873,0.03545642524255737,-3.5645031967292815,0.9999509541898521,-3.5643448449745545,0.9999264888150212,3.1333423100420257,0.04332888912334378,1.563265306122449,0.639686684073107
-3.1501629003863827,0.03562233973610995,-3.7551868557087964,0.9999424355070471,-3.7549475922380053,0.9999576589463309,3.017166420154502,0.042479839363697376,1.5653061224489797,0.6388526727509778
-3.208283483830322,0.03510770413872205,-3.9453493231820813,0.9999575530732471,-3.9450505879707447,1.000040502030921,2.9060843632046125,0.04032302443269797,1.5673469387755103,0.6380208333333333
-3.2607135286625675,0.03395485565616919,-4.135001582403689,0.9999940406363987,-4.134673672165311,1.000162431289913,2.8064419500447513,0.03698765011949077,1.569387755102041,0.6371911573472041
-3.3017792956260017,0.03226899707931901,-4.324153057972821,1.0000464962687416,-4.323830506203218,1.0003052458145265,2.72770549225326,0.03268976292239153,1.5714285714285714,0.6363636363636364
-3.325170658314748,0.030220731279892363,-4.512810545615096,1.000107222692685,-4.5125269764497915,1.000447915388981,2.6858170058233375,0.027761659986090495,1.573469387755102,0.6355382619974059
-3.3242390910754955,0.02804894312715439,-4.700977561069179,1.0001674145894304,-4.700760796031952,1.0005697294113414,2.7089807621807713,0.02272907595736758,1.5755102040816327,0.6347150259067358
-3.2935617926108196,0.026056765800645254,-4.888654210536176,1.0002184893689166,-4.8885223267401505,1.0006533185342035,2.8409152838648835,0.018481361282639528,1.5775510204081633,0.6338939197930142
-3.2325805242995567,0.024582471191445198,-5.075837582871791,1.0002533360318602,-5.075796450924608,1.0006871012747538,3.1024076449376996,0.016396647014716888,1.579591836734694,0.6330749354005167
-3.1501954026014136,0.023921350201447315,-5.262522567449748,1.0002672882805161,-5.262565176874299,1.0006668182005973,3.3880368563374925,0.01751514683740818,1.5816326530612246,0.632258064516129
-3.064962392503975,0.024209418781848888,-5.448702939450481,1.0002586981376473,-5.448810572938033,1.0005959660918105,3.558957201349287,0.021163052245779485,1.5836734693877552,0.6314432989690721
-2.996830246146578,0.025353583673307145,-5.634372537038111,1.0002290669932765,-5.634517598016915,1.0004851119672753,3.6094534279432766,0.025891272757903636,1.5857142857142859,0.6306306306306306
-2.957448221070336,0.02708176362925658,-5.81952637271803,1.0001827567710182,-5.819676430523953,1.0003502309674097,3.5843255599302863,0.030685313545017086,1.5877551020408165,0.6298200514138816
-2.9483191421140575,0.029060853274882916,-6.004161553117848,1.0001263449539475,-6.0042839903021665,1.0002103469450567,3.5162656652309177,0.0349695222459908,1.5897959183673471,0.6290115532734274
-2.9649486983342968,0.030986547185741568,-6.188277910661223,1.0000677108729805,-6.188344480523724,1.000084836616289,3.4238016467243106,0.038404419173259506,1.5918367346938775,0.6282051282051282
-3.0009778888387713,0.03261908411976509,-6.371878274889159,1.0000149610261446,-6.371868921474753,0.9999907785390321,3.3175353198555464,0.04078158568134522,1.5938775510204082,0.6274007682458387
-3.0502193314817925,0.03378734912935661,-6.554968341188067,0.9999753248696092,-6.554873780913799,0.9999406956375597,3.204096368731811,0.04197993895136683,1.5959183673469388,0.6265984654731458
-3.107200332486539,0.03438295997456485,-6.737556141755425,0.9999541715488993,-6.737378913535194,0.9999409701246762,3.088252059159611,0.04194759199341623,1.5979591836734695,0.6257982120051085
-3.167046966695855,0.03435387499369742,-6.919651186869081,0.9999542953168765,-6.919405099967028,0.9999911146393453,2.974147138755229,0.04069424291302077,1.6,0.625
