s11a,s11m,s21a,s21m,s12a,s12m,s22a,s22m,wavelengths,freqs
-3.140720346020032,0.014989412583751537,-0.20970188834911088,0.9999924241541837,-0.20970185348182252,0.999992446746992,-3.1410341713651726,0.014994119869604602,1.5,0.6666666666666666
-3.140565068626251,0.01495059151928283,-0.26629145019667866,0.9999902477154664,-0.2662914081966314,0.9999902787160171,-3.140913289900745,0.014954701003791418,1.5020408163265306,0.6657608695652174
-3.1404077426320067,0.014912058473652864,-0.32272504667912405,0.9999881811220445,-0.3227249987130407,0.9999882212375057,-3.140785433678451,0.01491551940835256,1.5040816326530613,0.6648575305291723
-3.1402491517978763,0.014873812679303239,-0.3790033334904909,0.9999862198519726,-0.3790032807819338,0.9999862696405208,-3.140651029789613,0.014876583933513488,1.506122448979592,0.6639566395663956
-3.1400900864248253,0.014835852105634607,-0.4351269621028626,0.9999843583123877,-0.43512690591377506,0.9999844181817125,-3.1405105896234904,0.014837902535202943,1.5081632653061225,0.6630581867388362
-3.1399313320301308,0.014798173473200898,-0.4910965798010873,0.9999825902389284,-0.49109652141476146,0.999982660446695,-3.140364699748676,0.014799482142128114,1.510204081632653,0.6621621621621622
-3.139773657347236,0.014760772291236054,-0.5469128297499223,0.9999809090685996,-0.5469127704552849,0.9999809897240056,-3.1402140109342924,0.014761328548494778,1.5122448979591836,0.6612685560053981
-3.1396178023418537,0.01472364292341155,-0.6025763510851007,0.9999793082695638,-0.6025762921617827,0.9999793993354316,-3.1400592260620703,0.014723446339195145,1.5142857142857142,0.6603773584905661
-3.139464467025026,0.014686778680575847,-0.6580877790170285,0.9999777816186607,-0.658087721720532,0.999977882914033,-3.139901087775883,0.0146858388476774,1.5163265306122449,0.6594885598923285
-3.139314301701147,0.014650171934887874,-0.713447744936018,0.9999763234247832,-0.7134476904824588,0.9999764346284319,-3.1397403665672408,0.014648508142049281,1.5183673469387755,0.6586021505376344
-3.139167899005141,0.014613814245628779,-0.7686568765113788,0.999974928701813,-0.7686568260616955,0.9999750493574089,-3.139577849702464,0.014611455030701902,1.5204081632653061,0.6577181208053691
-3.1390257877218666,0.014577696487082098,-0.8237157977807636,0.999973593297637,-0.8237157524247926,0.9999737228212899,-3.1394143310308387,0.014574679078874215,1.5224489795918368,0.6568364611260054
-3.138888428108858,0.01454180897235106,-0.8786251292311081,0.9999723139858695,-0.8786250899723609,0.9999724516764825,-3.139250601444345,0.014538178631157646,1.5244897959183674,0.6559571619812583
-3.1387562082801552,0.014506141569223271,-0.9333854878744271,0.9999710885247124,-0.9333854556165943,0.9999712335770845,-3.1390874396097073,0.014501950837287815,1.526530612244898,0.6550802139037433
-3.1386294412449436,0.014470683809488445,-0.9879974873227814,0.9999699156845835,-0.9879974628588888,0.9999700672046843,-3.1389256026514825,0.014465991683833541,1.5285714285714287,0.6542056074766355
-3.1385083623507426,0.01443542499635498,-1.0424617378650463,0.999968795243989,-1.0424617218698102,0.9999689522654147,-3.1387658166450256,0.014430296037489689,1.530612244897959,0.6533333333333333
-3.138393127125157,0.014400354313436264,-1.0967788465447237,0.9999677279518625,-1.096778839570129,0.9999678894523774,-3.1386087670433267,0.014394857704155715,1.5326530612244897,0.6524633821571239
-3.138283809730013,0.014365460940616968,-1.150949417236369,0.9999667154560969,-1.150949419709983,0.9999668803732936,-3.1384550893929286,0.014359669509429263,1.5346938775510204,0.6515957446808511
-3.138180403853265,0.014330731834305515,-1.2049740506698683,0.9999657601785991,-1.2049740628950583,0.9999659274241117,-3.1383053623275083,0.01432472105786299,1.536734693877551,0.650730411686587
-3.138082817641443,0.01429616121033657,-1.2588533446670072,0.9999648652685336,-1.2588533668241668,0.9999650337408993,-3.1381600944388324,0.014290008208727724,1.5387755102040817,0.649867374005305
-3.137990884701325,0.014261736658435489,-1.312587893916424,0.9999640343259301,-1.3125879260644908,0.9999642029222362,-3.1380197275211574,0.014255519196441831,1.5408163265306123,0.6490066225165563
-3.137904362298219,0.014227448588385445,-1.3661782901725834,0.9999632713222608,-1.36617833225058,0.9999634389495315,-3.137884626912903,0.014221244094851902,1.542857142857143,0.6481481481481481
-3.137822938136375,0.01419328800821027,-1.4196251222187288,0.9999625804154499,-1.4196251740475025,0.9999627460023048,-3.1377550807879007,0.014187172624833924,1.5448979591836736,0.6472919418758256
-3.1377462367605466,0.014159246612736966,-1.4729289758596151,0.9999619657903264,-1.4729290371443597,0.9999621282993407,-3.1376312993366327,0.014153294282731514,1.5469387755102042,0.646437994722955
-3.1376738255412437,0.014125317768757322,-1.526090433925318,0.9999614315745518,-1.5260905042596384,0.9999615900153068,-3.137513413899913,0.01411959937512655,1.5489795918367348,0.6455862977602107
-3.137605226943937,0.01409149198017308,-1.5791100761509185,0.9999609813730611,-1.5791101550230675,0.9999611348153048,-3.137401482748307,0.014086074542584152,1.5510204081632653,0.6447368421052632
-3.137539915376801,0.014057766154292967,-1.6319884793548447,0.9999606188041205,-1.6319885661565343,0.9999607663903602,-3.1372954820803005,0.014052712092821988,1.5530612244897959,0.6438896189224704
-3.13747733447856,0.014024134269456257,-1.684726217212743,0.9999603467169107,-1.684726311250278,0.9999604876732624,-3.1371953178145198,0.014019500742467356,1.5551020408163265,0.6430446194225722
-3.137416897482163,0.013990593062661191,-1.7373238603608487,0.999960167502031,-1.7373239608680406,0.999960301146672,-3.137100821256959,0.013986431385069466,1.5571428571428572,0.6422018348623854
-3.1373580002643786,0.013957137072275699,-1.789781976247374,0.999960082627586,-1.7897820823992021,0.9999602083762833,-3.1370117579612806,0.0139534922190488,1.5591836734693878,0.6413612565445026
-3.137300018801538,0.013923766335456993,-1.8421011292990281,0.9999600931594644,-1.8421012402250907,0.9999602105283699,-3.1369278219804073,0.013920676533905621,1.5612244897959184,0.6405228758169934
-3.1372423251704964,0.013890479782343111,-1.8942818807210113,0.999960199204116,-1.8942819955178003,0.9999603078102484,-3.136848649084907,0.013887976195121157,1.563265306122449,0.639686684073107
-3.1371842975074067,0.013857274277857181,-1.9463247884217978,0.9999603997897745,-1.946324906163367,0.9999604993501355,-3.1367738247611165,0.013855380777317686,1.5653061224489797,0.6388526727509778
-3.137125316279403,0.013824153309162226,-1.998230407225606,0.9999606935679071,-1.998230526972764,0.9999607838982284,-3.1367028795294893,0.013822886342549023,1.5673469387755103,0.6380208333333333
-3.1370647858969174,0.013791117500438979,-2.0499992885698175,0.9999610780770264,-2.0499994093782092,0.999961159090747,-3.1366353097689146,0.013790486044145376,1.569387755102041,0.6371911573472041
-3.137002136029062,0.013758169377097333,-2.1016319806173964,0.99996155018226,-2.1016321015453867,0.9999616218901577,-3.136570579292076,0.013758174977698755,1.5714285714285714,0.6363636363636364
-3.136936830797186,0.013725311931048768,-2.1531290282030615,0.9999621060377485,-2.153129148320208,0.9999621685479804,-3.136508129241401,0.013725948829992706,1.573469387755102,0.6355382619974059
-3.1368683732267955,0.01369254963127615,-2.204490972869971,0.9999627412717726,-2.2044910912666817,0.9999627947896962,-3.136447383912121,0.01369380496962586,1.5755102040816327,0.6347150259067358
-3.1367963134240218,0.013659886327912051,-2.255718352817453,0.9999634509200432,-2.255718468615932,0.9999634957468923,-3.136387760780004,0.013661740426920907,1.5775510204081633,0.6338939197930142
-3.1367202480372964,0.013627327928154659,-2.3068117030218276,0.9999642297772302,-2.3068118153879658,0.9999642663067771,-3.1363286725222834,0.013629754640858797,1.579591836734694,0.6330749354005167
-3.1366398266488584,0.013594880225031207,-2.3577715552017318,0.9999650723363532,-2.3577716633570236,0.9999651010489338,-3.1362695363553996,0.013597847353248751,1.5816326530612246,0.632258064516129
-3.1365547551397297,0.013562548385440387,-2.4085984378399004,0.9999659728703411,-2.4085985410723096,0.9999659943241318,-3.136209780908607,0.013566018155833132,1.5836734693877552,0.6314432989690721
-3.1364647927545706,0.013530339854160056,-2.459292876339341,0.9999669258226004,-2.459292974012065,0.9999669406426263,-3.1361488473439136,0.013534269446268003,1.5857142857142859,0.6306306306306306
-3.1363697596987423,0.013498261074893868,-2.509855392951236,0.9999679256538586,-2.509855484508547,0.9999679345196433,-3.1360862012311244,0.013502603193326319,1.5877551020408165,0.6298200514138816
-3.1362695362991833,0.01346631901812154,-2.5602865068853533,0.9999689671194488,-2.560286591855345,0.9999689707525397,-3.136021336435355,0.013471022500740542,1.5897959183673471,0.6290115532734274
-3.136164064978209,0.01343452086120791,-2.6105867343591638,0.999970045386997,-2.6105868123537332,0.9999700445395356,-3.1359537819985506,0.013439531314908361,1.5918367346938775,0.6282051282051282
-3.1360533505838903,0.013402874201497522,-2.660756588678154,0.9999711562024372,-2.6607566593911254,0.9999711516476324,-3.135883107538435,0.013408134657310835,1.5938775510204082,0.6274007682458387
-3.135937463821095,0.01337138510757548,-2.710796580234435,0.9999722958526183,-2.710796643438963,0.9999722883774266,-3.1358089317963604,0.013376836687105691,1.5959183673469388,0.6265984654731458
-3.135816536698501,0.013340059751917434,-2.7607072166685733,0.9999734614411759,-2.7607072722150017,0.999973451840895,-3.135730923278082,0.013345642337658259,1.5979591836734695,0.6257982120051085
-3.135690754756288,0.013308906834162026,-2.8104890030882177,0.9999746512183585,-2.8104890509032012,0.9999746402922765,-3.1356487976171743,0.013314559736688625,1.6,0.625
