s11a,s11m,s21a,s21m,s12a,s12m,s22a,s22m,wavelengths,freqs
-3.00520009133172,0.030256737621495076,-2.7048796619204363,1.0002039421068027,-2.7050109448987825,1.0004266486590399,-2.7475725556000707,0.031505283763320555,1.5,0.6666666666666666
-2.9990190078208334,0.030489712920042124,-2.7395707570023466,1.0001933595139272,-2.739703123061746,1.0003946244631607,-2.7494997509719887,0.03234807919921765,1.5020408163265306,0.6657608695652174
-2.993723809008379,0.030735460870987413,-2.7741614045003855,1.0001823687152163,-2.7742932638223476,1.000362425757418,-2.7533677841072857,0.03318033368181154,1.5040816326530613,0.6648575305291723
-2.9893206504354124,0.030991802010781173,-2.808652025824222,1.0001710334080114,-2.8087818240410307,1.0003302271878105,-2.7590024212318456,0.03399803066237756,1.506122448979592,0.6639566395663956
-2.985808515722399,0.03125658363779825,-2.843043044373057,1.0001594182609643,-2.8431692699754034,1.0002982006419803,-2.7662435472856655,0.03479756040786685,1.5081632653061225,0.6630581867388362
-2.983180039965011,0.03152769325140035,-2.8773348857228136,1.0001475877423511,-2.877456077159503,1.0002665133045976,-2.77494470574667,0.03557567572455102,1.510204081632653,0.6621621621621622
-2.981422322955099,0.03180306987099575,-2.9115279773757266,1.0001356066927072,-2.9116427298040914,1.0002353281692706,-2.784972337245907,0.03632945273683657,1.5122448979591836,0.6612685560053981
-2.9805177110217587,0.03208071341055966,-2.945622748792173,1.0001235396231412,-2.945729720436401,1.00020480275107,-2.7962048529312713,0.03705625658819109,1.5142857142857142,0.6603773584905661
-2.98044453196564,0.032358692303972425,-2.9796196312943812,1.0001114505509738,-2.979717549369519,1.0001750885755283,-2.808531635599303,0.0377537117527121,1.5163265306122449,0.6594885598923285
-2.9811777726050708,0.03263514958662404,-3.0135190579926108,1.0000994027594938,-3.0136067241602094,1.0001463305904603,-2.821852030385461,0.038419676555374455,1.5183673469387755,0.6586021505376344
-2.982689692798869,0.03290830764207864,-3.047321463716604,1.0000874585565258,-3.0473977590473176,1.0001186666164004,-2.8360743645581663,0.039052221462874764,1.5204081632653061,0.6577181208053691
-2.9849503734475826,0.0331764718142075,-3.081027284947918,1.0000756790215364,-3.0810911743758123,1.0000922268255972,-2.851115020361684,0.03964961069821373,1.5224489795918368,0.6568364611260054
-2.9879281988673654,0.033438033075855154,-3.114636959743834,1.0000641237342938,-3.1146874960035595,1.0000671332418845,-2.8668975740611957,0.040210286743095035,1.5244897959183674,0.6559571619812583
-2.991590276125742,0.03369146992025625,-3.1481509276402595,1.0000528504862012,-3.1481872546832106,1.0000434992579381,-2.883352006952791,0.040732857313722115,1.526530612244898,0.6550802139037433
-2.995902795437054,0.03393534962056636,-3.1815696295232585,1.0000419149801818,-3.1815909854105735,1.0000214291735756,-2.9004139891570313,0.041216084424278564,1.5285714285714287,0.6542056074766355
-3.000831336612029,0.03416832897286685,-3.2148935074623974,1.0000313705314483,-3.2148992267328764,1.0000010177654663,-2.918024233763004,0.041658875184813066,1.530612244897959,0.6533333333333333
-3.006341126934396,0.034389154612643226,-3.2481230045055525,1.0000212677827658,-3.2481125200164582,0.9999823499004689,-2.9361279168968295,0.0420602740239631,1.5326530612244897,0.6524633821571239
-3.0123972558195367,0.034596662971249234,-3.281258564441138,1.0000116544467392,-3.281231408678869,0.9999655002059805,-2.954674158178346,0.04241945606518563,1.5346938775510204,0.6515957446808511
-3.0189648513158667,0.03478977992067267,-3.314300631538026,1.0000025750833395,-3.314256437395203,0.9999505328069281,-2.9736155555613544,0.04273572142857692,1.536734693877551,0.650730411686587
-3.026009223074773,0.03496752014230314,-3.3472496502752587,0.9999940709153787,-3.3471881512908856,0.9999375011345231,-2.992907768534132,0.043008490268978614,1.5387755102040817,0.649867374005305
-3.0334959759252373,0.035128986249626376,-3.380106065072792,0.9999861796781461,-3.3800270951327627,0.9999264478069467,-3.0125091439112754,0.043237298394690406,1.5408163265306123,0.6490066225165563
-3.0413910977307497,0.03527336768864915,-3.4128703200293673,0.9999789354969469,-3.4127738125274574,0.9999174045787318,-3.0323803788600365,0.04342179333909586,1.542857142857143,0.6481481481481481
-3.0496610247978824,0.03539993944261529,-3.445542858669964,0.9999723687829298,-3.4454288451330184,0.9999103923541701,-3.0524842162529264,0.04356173077892877,1.5448979591836736,0.6472919418758256
-3.058272687769582,0.03550806056407499,-3.4781241236988523,0.9999665061407014,-3.477992731886232,0.9999054212608246,-3.0727851678646574,0.04365697120957076,1.5469387755102042,0.646437994722955
-3.067193540642519,0.03559717255777595,-3.5106145567518476,0.9999613702842954,-3.5104660082469072,0.9999024907813141,-3.093249261280289,0.04370747680103499,1.5489795918367348,0.6455862977602107
-3.0763915752807294,0.035666797635373226,-3.5430145981402066,0.9999569799632385,-3.542849205460301,0.9999015899437901,-3.1138438066489877,0.04371330837059251,1.5510204081632653,0.6447368421052632
-3.085835323528446,0.03571653685940829,-3.5753246865807453,0.9999533499052317,-3.5751428498406987,0.9999026975732002,-3.134537179605083,0.04367462241986344,1.5530612244897959,0.6438896189224704
-3.0954938487472017,0.035746068192642214,-3.607545258911468,0.9999504907839021,-3.6073474620821857,0.9999057826044792,-3.155298616832911,0.043591668200391495,1.5551020408163265,0.6430446194225722
-3.1053367283021265,0.03575514446289148,-3.639676749796194,0.9999484092220224,-3.639463556603731,0.9999108044586877,-3.1760980208467657,0.04346478478265687,1.5571428571428572,0.6422018348623854
-3.115334028238791,0.03574359125692811,-3.671719591427684,0.9999471078357556,-3.671491640938077,0.9999177134779538,-3.1969057707161395,0.043294398124854964,1.5591836734693878,0.6413612565445026
-3.125456271113893,0.03571130475442483,-3.7036742132406393,0.9999465853225231,-3.7034322151721932,0.9999264514134614,-3.2176925355796797,0.043081018148495714,1.5612244897959184,0.6405228758169934
-3.135674397726082,0.0356582495172241,-3.7355410416464694,0.9999468365885567,-3.7352857714451155,0.9999369519571722,-3.2384290879611934,0.04282523584294903,1.563265306122449,0.639686684073107
-3.1459597233285517,0.03558445625225234,-3.7673204997991854,0.9999478529073357,-3.7670527935058087,0.999949141306987,-3.259086114042295,0.042527720429793844,1.5653061224489797,0.6388526727509778
-3.156283888820778,0.03549001957016708,-3.7990130073967854,0.9999496220966894,-3.798733756330199,0.9999629387552093,-3.279634018163247,0.04218921662348483,1.5673469387755103,0.6380208333333333
-3.16661880739279,0.03537509576454125,-3.8306189805164568,0.9999521287024905,-3.830329125793545,0.9999782572927582,-3.3000427188680455,0.04181054202661825,1.569387755102041,0.6371911573472041
-3.1769366071266236,0.03523990063747118,-3.862138831477576,0.9999553541779695,-3.861839358394382,0.9999950042228789,-3.320281433760803,0.04139258469736631,1.5714285714285714,0.6363636363636364
-3.1872095701169565,0.03508470739659202,-3.8935729687216747,0.9999592770538853,-3.893264901024966,1.0000130817822934,-3.340318450272658,0.040936300924843405,1.573469387755102,0.6355382619974059
-3.1974100687330416,0.034909844645528744,-3.9249217966990915,0.9999638730992254,-3.9246061907862138,1.00003238776807,-3.3601208791465456,0.04044271324697515,1.5755102040816327,0.6347150259067358
-3.2075104996923365,0.03471569448570555,-3.9561857157536577,0.9999691154779184,-3.955863654846473,1.000052816169366,-3.379654387041092,0.0399129087464446,1.5775510204081633,0.6338939197930142
-3.2174832166325373,0.03450269074260812,-3.987365122001393,0.9999749749102829,-3.9870377103452888,1.0000742578018942,-3.3988829041440782,0.039348037664215844,1.579591836734694,0.6330749354005167
-3.2273004618666215,0.03427131732532372,-4.018460407204969,0.9999814198485687,-4.018128764343954,1.0000966009409227,-3.417768302103261,0.03874931237746554,1.5816326530612246,0.632258064516129
-3.23693429798714,0.03402210672493601,-4.049471958650865,0.9999884166736618,-4.049137213823732,1.0001197319465258,-3.4362700369415475,0.03811800679878,1.5836734693877552,0.6314432989690721
-3.2463565399820395,0.03375563865552767,-4.080400159039711,0.999995929915102,-4.0800634457303975,1.00014353587352,-3.454344750939887,0.03745545626492165,1.5857142857142859,0.6306306306306306
-3.255538688550206,0.03347253884121653,-4.111245386400361,1.0000039224912787,-4.110907837061122,1.0001678970580916,-3.4719458267726697,0.03676305799782659,1.5877551020408165,0.6298200514138816
-3.2644518653938346,0.033173477953013376,-4.142008014036929,1.0000123559598284,-4.1416707549867136,1.000192699675691,-3.4890228863888813,0.03604227222977035,1.5897959183673471,0.6290115532734274
-3.273066751414453,0.03285917069981828,-4.172688410511565,1.0000211907661578,-4.172352557001268,1.0002178282665504,-3.5055212263629985,0.035294624101055876,1.5918367346938775,0.6282051282051282
-3.281353528979385,0.032530375077683756,-4.203286939660343,1.0000303864759983,-4.202953591090793,1.000243168229615,-3.5213811805374147,0.03452170644791637,1.5938775510204082,0.6274007682458387
-3.289281829715574,0.032187891779533975,-4.233803960633146,1.0000399019810342,-4.233474195914793,1.000268606288269,-3.5365373998698484,0.03372518361376005,1.5959183673469388,0.6265984654731458
-3.2968206896437118,0.031832563764023124,-4.264239827944184,1.0000496956718814,-4.263914700997816,1.000294030933157,-3.550918038480883,0.0329067964340284,1.5979591836734695,0.6257982120051085
-3.3039385138434123,0.03146527597660841,-4.294594891518637,1.0000597255796304,-4.294275426931838,1.0003193328471598,-3.5644438341041655,0.03206836856781326,1.6,0.625
