s11a,s11m,s12a,s12m,s21a,s21m,s22a,s22m,wavelengths,freqs
-2.9907216325218586,0.030939596828629512,-2.799537522365509,1.0001679128239147,-2.7996615933811078,1.00032949757219,-2.762916227077753,0.033734356779135465,1.5,0.6666666666666666
-2.987137156217543,0.031202602759829095,-2.8340653446063704,1.0001565263385446,-2.8341865788020266,1.000298061314227,-2.7697378602803515,0.03452635500224122,1.5020408163265306,0.6657608695652174
-2.9844410865590114,0.03147192260706299,-2.868493183003539,1.000144915533526,-2.8686101367223147,1.000266905917124,-2.778041260821416,0.03529729818626182,1.5040816326530613,0.6648575305291723
-2.982619562499886,0.03174547246967339,-2.9028214702563524,1.0001331447286999,-2.9029327545041554,1.000236193737082,-2.787689280961946,0.03604423272027573,1.506122448979592,0.6639566395663956
-2.9816539298632954,0.032021236985091454,-2.9370506407660892,1.000121278035385,-2.9371549275456323,1.0002060813535922,-2.7985570748647928,0.036764511278264064,1.5081632653061225,0.6630581867388362
-2.9815215241282043,0.03229727663202411,-2.971181130694757,1.0001093791095736,-2.971277158659821,1.0001767189804958,-2.8105311257463463,0.03745576067716477,1.510204081632653,0.6621621621621622
-2.982196387141934,0.03257173330181908,-3.0052133779924284,1.000097510845429,-3.005299957445391,1.0001482499773544,-2.8235082427313807,0.038115853996010536,1.5122448979591836,0.6612685560053981
-2.983649911996308,0.03284283438781387,-3.0391478223639976,1.0000857350317798,-3.0392238396818936,1.000120810437918,-2.8373945734093753,0.03874288654216455,1.5142857142857142,0.6603773584905661
-2.9858514141624446,0.03310889562888992,-3.0729849051640032,1.0000741120044425,-3.0730493267641763,1.0000945288208463,-2.852104660466696,0.039335155236289596,1.5163265306122449,0.6594885598923285
-2.9887686299309553,0.03336832292504907,-3.1067250692269264,1.0000627003264675,-3.1067769451692104,1.0000695255885363,-2.8675605585513093,0.039891140998363515,1.5183673469387755,0.6586021505376344
-2.992368145377455,0.033619613321160466,-3.140368758654922,1.0000515565180668,-3.1404072259319844,1.000045912831172,-2.883691019226112,0.04040949374145744,1.5204081632653061,0.6577181208053691
-2.99661576056556,0.033861355330972245,-3.17391641859103,1.0000407348427274,-3.1739407040995324,1.0000237938709367,-2.9004307463470993,0.040889019611337285,1.5224489795918368,0.6568364611260054
-3.001476794637949,0.03409222874789163,-3.207368495003154,1.000030287140745,-3.207377918135148,1.000003262859491,-2.9177197206491368,0.041328670144211654,1.5244897959183674,0.6559571619812583
-3.006916337887986,0.03431100406327303,-3.2407254344939145,1.000020262690725,-3.2407194092564353,0.9999844043951485,-2.9355025901096434,0.04172753304979509,1.526530612244898,0.6550802139037433
-3.0128994569971983,0.034516541587802145,-3.2739876841383304,1.000010708076329,-3.2739657207073174,0.9999672931910023,-2.953728121404589,0.04208482436069697,1.5285714285714287,0.6542056074766355
-3.0193913593976673,0.034707790348882724,-3.3071556913386377,1.0000016670395682,-3.307117396979689,0.999951993821001,-2.9723487071259322,0.04239988172139429,1.530612244897959,0.6533333333333333
-3.0263575223057138,0.03488378681755691,-3.34022990367777,0.9999931803115928,-3.3401749830111074,0.9999385605595432,-2.991319923215585,0.042672158619782664,1.5326530612244897,0.6524633821571239
-3.0337637914367988,0.03504365350310244,-3.3732107687516195,0.9999852854238018,-3.373139023388093,0.9999270373155498,-3.0106001311223323,0.04290121939160795,1.5346938775510204,0.6515957446808511
-3.0415764538224415,0.03518659744228938,-3.406098733964935,0.9999780165120485,-3.4060100615796873,0.9999174576481976,-3.0301501193950657,0.043086734852187523,1.536734693877551,0.650730411686587
-3.049762288576519,0.03531190860305391,-3.4388942462844883,0.999971404133713,-3.4387886392147915,0.9999098448439688,-3.049932779725915,0.04322847843176163,1.5387755102040817,0.649867374005305
-3.0582885989249444,0.03541895821776648,-3.471597751954673,0.9999654751158157,-3.47147529540524,0.9999042120311206,-3.0699128127812787,0.04332632270967634,1.5408163265306123,0.6490066225165563
-3.0671232283508725,0.0355071970589493,-3.5042096961879006,0.9999602524497848,-3.504070566103321,0.9999005623153672,-3.0900564594904303,0.043380236259853426,1.542857142857143,0.6481481481481481
-3.076234563308001,0.03557615366869671,-3.5367305228484804,0.9999557552381743,-3.5365749834778684,0.9998988889286379,-3.110331253765403,0.04339028073529774,1.5448979591836736,0.6472919418758256
-3.085591524618611,0.035625432551840204,-3.5691606741473727,0.9999519986902609,-3.568989075291727,0.9998991753951894,-3.130705792904213,0.043356608133521754,1.5469387755102042,0.646437994722955
-3.095163549376411,0.03565471234148218,-3.6015005903612343,0.9999489941557865,-3.6013133642700574,0.9999013957286857,-3.151149522168492,0.04327945819777023,1.5489795918367348,0.6455862977602107
-3.1049205649087157,0.035663743944110364,-3.633750709581245,0.9999467491821304,-3.6335483674585083,0.9999055146785608,-3.1716325302328747,0.04315915592119028,1.5510204081632653,0.6447368421052632
-3.114832956104886,0.03565234867007946,-3.6659114674895164,0.9999452675807768,-3.665694595581453,0.9999114880428727,-3.192125352375085,0.04299610913223443,1.5530612244897959,0.6438896189224704
-3.12487152718672,0.03562041635452269,-3.6979832971544315,0.9999445494932584,-3.6977525524190824,0.999919263058239,-3.212598778413023,0.04279080614993279,1.5551020408163265,0.6430446194225722
-3.1350074587841874,0.03556790347366135,-3.7299666288335196,0.9999445914532906,-3.729722734226446,0.9999287788671493,-3.2330236624973514,0.042543813506794065,1.5571428571428572,0.6422018348623854
-3.1452122609972655,0.03549483126245775,-3.7618618897731855,0.999945386448747,-3.761605629215847,0.9999399670521891,-3.253370731931835,0.042255773745072646,1.5591836734693878,0.6413612565445026
-3.155457722974995,0.03540128384125773,-3.7936695039990553,0.9999469239921728,-3.7934017171175856,0.9999527522179611,-3.2736103922109385,0.04192740329895289,1.5612244897959184,0.6405228758169934
-3.165715859444509,0.03528740636125304,-3.8253898920965517,0.999949190210739,-3.825111468823931,0.9999670525972382,-3.2937125254350565,0.041559490481024475,1.563265306122449,0.639686684073107
-3.1759588545624697,0.03515340318072215,-3.85702347098779,0.9999521679650826,-3.8567353461109635,0.9999827806589803,-3.3136462791717807,0.04115289359638251,1.5653061224489797,0.6388526727509778
-3.1861590034529645,0.034999536085652795,-3.8885706537151177,0.9999558370022537,-3.8882738014242464,0.9999998437017136,-3.3333798426841796,0.04070853921237333,1.5673469387755103,0.6380208333333333
-3.196288651815139,0.034826122569038824,-3.9200318492435233,0.9999601741420346,-3.91972727771028,1.000018144424776,-3.352880207228175,0.04022742061645869,1.569387755102041,0.6371911573472041
-3.2063201340319125,0.03463353418278607,-3.9514074622925843,0.9999651534899977,-3.9510962082763,1.0000375814795026,-3.3721129068391176,0.03971059649950945,1.5714285714285714,0.6363636363636364
-3.216225710266541,0.03442219497486626,-3.9826978932043033,0.9999707466663114,-3.982381016666263,1.0000580500100786,-3.391041735672217,0.03915918990725459,1.573469387755102,0.6355382619974059
-3.2259775030931657,0.03419258002223927,-4.013903537847691,0.9999769230376759,-4.013582116549185,1.0000794421975738,-3.409628437539641,0.0385743875086644,1.5755102040816327,0.6347150259067358
-3.235547434267798,0.033945214067827946,-4.045024787555161,0.999983649941016,-4.044699911624711,1.0001016478196847,-3.4278323627959537,0.03795743923722279,1.5775510204081633,0.6338939197930142
-3.2449071623036474,0.033680670267555134,-4.0760620290815055,0.9999908928914216,-4.075734795557786,1.0001245548335216,-3.445610087160805,0.03730965836904359,1.579591836734694,0.6330749354005167
-3.254028021587491,0.03339956905177567,-4.107015644574569,0.9999986157721101,-4.106687151957555,1.0001480499806539,-3.462914986442916,0.03663242211112681,1.5816326530612246,0.632258064516129
-3.2628809638651886,0.033102577104199275,-4.137886011547674,1.000006781009548,-4.137557354414457,1.0001720194050432,-3.4796967604385234,0.03592717278365783,1.5836734693877552,0.6314432989690721
-3.2714365030570653,0.03279040646061677,-4.168673502847266,1.00001534974096,-4.168345766603856,1.0001963492676267,-3.495900898545368,0.03519541969259299,1.5857142857142859,0.6306306306306306
-3.2796646645404284,0.03246381372912977,-4.199378486614174,1.000024281983236,-4.1990527424564394,1.000220926337932,-3.5114680788739503,0.03443874180335774,1.5877551020408165,0.6298200514138816
-3.287534940276713,0.032123599432506686,-4.230001326241888,1.00003353681154,-4.229678626386608,1.0002456385444174,-3.526333491919856,0.033658791343676046,1.5897959183673471,0.6290115532734274
-3.295016251448383,0.031770607471474165,-4.260542380339318,1.0000430725526945,-4.260223753562997,1.0002703754704738,-3.5404260792508575,0.032857298484172306,1.5918367346938775,0.6282051282051282
-3.3020769206270946,0.03140572470491761,-4.291002002707166,1.000052846993906,-4.2906884502011025,1.0002950287914831,-3.553667677331089,0.03203607727010592,1.5938775510204082,0.6274007682458387
-3.3086846558781366,0.03102988063852569,-4.321380542336671,1.0000628176024,-4.321073033859039,1.00031949265739,-3.565972056751684,0.031197033006434047,1.5959183673469388,0.6265984654731458
-3.314806549635532,0.030644047208136092,-4.351678343436401,1.000072941747673,-4.351377813722082,1.0003436640330674,-3.577243848134544,0.030342171332085218,1.5979591836734695,0.6257982120051085
-3.3204090956242602,0.03024923863744771,-4.381895745488406,1.0000831769159069,-4.381603090869852,1.0003674430132081,-3.5873773483347136,0.029473609256775654,1.6,0.625
