s11a,s11m,s21a,s21m,s12a,s12m,s22a,s22m,wavelengths,freqs
3.005690400425123,0.035353729912888016,-1.2535329579056091,1.0000427114511257,-1.253118886585767,1.0003117076944172,2.780016161813139,0.03636036969201436,1.5,0.6666666666666666
2.9970823817281134,0.03472479876979683,-1.3098904301422525,1.0000621151757196,-1.3094875330360933,1.0003610372618674,2.7625634279932796,0.03486683353394984,1.5020408163265306,0.6657608695652174
2.990022043082561,0.034068900821020875,-1.3660882945977455,1.0000817963134367,-1.3656998992909746,1.0004091772042492,2.748586887643542,0.03332470870203462,1.5040816326530613,0.6648575305291723
2.9846667525646273,0.03339230939672301,-1.4221272646398107,1.0001015052494786,-1.4217564813575971,1.0004555175933758,2.7386871234149095,0.03174784872811644,1.506122448979592,0.6639566395663956
2.9811719470576823,0.03270175263400561,-1.478008023414035,1.0001209968757097,-1.4776577090684113,1.0004994832541314,2.733566797318088,0.030151911744846868,1.5081632653061225,0.6630581867388362
2.9796877984349637,0.03200440379364057,-1.5337312247600992,1.000140032975201,-1.53340395082465,1.0005405394606086,2.734040959538971,0.02855475431449298,1.510204081632653,0.6621621621621622
2.9803546217498704,0.031307860342796444,-1.589297494245089,1.000158384518236,-1.5889955187153342,1.000578197133394,2.7410391075145384,0.02697689832551567,1.5122448979591836,0.6612685560053981
2.983296871550129,0.030620106548849415,-1.6447074303318556,1.000175833886023,-1.6444326739979798,1.0006120175222428,2.75558981543289,0.025442046037666557,1.5142857142857142,0.6603773584905661
2.9886156540256805,0.029949453685526522,-1.6999616057077203,1.000192177024013,-1.6997156329242824,1.0006416163500327,2.77877312909092,0.023977573150919817,1.5163265306122449,0.6594885598923285
2.9963798281951446,0.029304451669827203,-1.7550605687988725,1.0002072255118295,-1.7548445728893527,1.0006666673880125,2.811619664954869,0.022614849484725377,1.5183673469387755,0.6586021505376344
3.006615992023945,0.028693766331223353,-1.8100048454903315,1.000220808522934,-1.8098196388771337,1.0006869054287273,2.8549325583528002,0.02138911527756346,1.5204081632653061,0.6577181208053691
3.019297949926208,0.02812601793092042,-1.8647949410604394,1.0002327746391104,-1.8646409501683128,1.0007021286188125,2.9090186606164075,0.020338501298773366,1.5224489795918368,0.6568364611260054
3.034336613025417,0.02760957936868668,-1.9194313423270564,1.0002429934791035,-1.919308607268845,1.0007122001132378,2.973353132111778,0.01950171577008989,1.5244897959183674,0.6559571619812583
3.051571633670307,0.027152336956237116,-1.9739145200212744,1.000251356971197,-1.973822698954023,1.0007170491067114,3.0462736171062965,0.018914116369076642,1.526530612244898,0.6550802139037433
3.0707663223339314,0.02676142259381216,-2.0282449311419306,1.000257781156281,-2.028183309743684,1.000716670530807,3.124876265601491,0.018602541373121697,1.5285714285714287,0.6542056074766355
3.0916074130240396,0.026442933015469027,-2.082423021921445,1.000262205730363,-2.082390526600112,1.0007111253995329,3.205280775289975,0.018580215046041317,1.530612244897959,0.6533333333333333
3.113710917882824,0.026201658040716697,-2.1364492302532536,1.0002645959263199,-2.1364444466519803,1.0007005383917442,3.283272782103577,0.01884374957023919,1.5326530612244897,0.6524633821571239
3.13663459959376,0.02604084534893555,-2.1903239886911323,1.0002649420216754,-2.1903451839290264,1.0006850961735176,3.355090697927783,0.01937363087553779,1.5346938775510204,0.6515957446808511
3.159896554060653,0.02596202517762507,-2.2440477271887613,1.000263259512605,-2.244092876204059,1.0006650439832143,3.418018933176036,0.02013801765997773,1.536734693877551,0.650730411686587
3.1829982905088428,0.025964922742471034,-2.297620875975406,1.0002595885583587,-2.2976876913201787,1.0006406819491314,3.470589218301188,0.02109815967960368,1.5387755102040817,0.649867374005305
3.2054497615098345,0.026047465550320455,-2.351043868282992,1.0002539933011645,-2.3511298330652615,1.0006123603218224,3.512432364660588,0.02221349345852526,1.5408163265306123,0.6490066225165563
3.226793394988967,0.026205889378842787,-2.4043171430111396,1.0002465607846558,-2.40441954640648,1.0005804741577033,3.543957926596571,0.023445270792079306,1.542857142857143,0.6481481481481481
3.246624385842151,0.026434929587429448,-2.457441147246197,1.0002373995751876,-2.4575571220124814,1.0005454573977943,3.5660248260360983,0.024758541901896785,1.5448979591836736,0.6472919418758256
3.264605282624905,0.026728075794115843,-2.5104163385963125,1.000226638090766,-2.5105428999816195,1.0005077764783115,3.5796862469369493,0.02612287021857215,1.5469387755102042,0.646437994722955
3.28047399295509,0.027077862561540014,-2.5632431873007895,1.000214422662438,-2.56337727272196,1.0004679236019576,3.5860247464249033,0.027512276828572844,1.5489795918367348,0.6455862977602107
3.2940454196528948,0.027476168653036964,-2.6159221780736295,1.0002009153637346,-2.6160606869553797,1.000426409801984,3.586060965821293,0.028904811528418138,1.5510204081632653,0.6447368421052632
3.30520777248272,0.027914501556304448,-2.668453811648461,1.0001862916506317,-2.6685936448422622,1.0003837579317163,3.580711982747765,0.030281999383366526,1.5530612244897959,0.6438896189224704
3.3139150535477198,0.02838425055133589,-2.7208386060005614,1.000170737862355,-2.72097670424663,1.0003404957033772,3.5707791445867625,0.03162829354717932,1.5551020408163265,0.6430446194225722
3.3201772987727125,0.02887689877317669,-2.7730770972329974,1.0001544486376284,-2.77321047818023,1.0002971488881809,3.55695154349731,0.03293059070863617,1.5571428571428572,0.6422018348623854
3.3240499723568564,0.029384191076212964,-2.8251698401259415,1.0001376243011806,-2.825295633477401,1.0002542347754884,3.539816682114463,0.034177825265316326,1.5591836734693878,0.6413612565445026
3.325623582557228,0.029898259285836608,-2.877117408360666,1.0001204682714206,-2.877232888761873,1.0002122559745519,3.519873597295326,0.03536063934442635,1.5612244897959184,0.6405228758169934
3.3250142256417625,0.030411709449798496,-2.9289203944382876,1.0001031845344248,-2.929023011772051,1.000171694627434,3.497546005895488,0.03647111844869001,1.563265306122449,0.639686684073107
3.3223554426779294,0.030917677195781694,-2.980579409320909,1.0000859752197795,-2.9806668161144945,1.0001330070901264,3.473194355096715,0.037502580885531316,1.5653061224489797,0.6388526727509778
3.3177915251808665,0.03140985764990296,-3.0320950818250045,1.0000690383043587,-3.0321651575164705,1.0000966191282221,3.4471263723263323,0.038449410001092636,1.5673469387755103,0.6380208333333333
3.311472242277546,0.0318825148571292,-3.083468057739837,1.0000525655791417,-3.0835189296685472,1.000062921504256,3.4196060703509326,0.039306919959635665,1.569387755102041,0.6371911573472041
3.303548815507845,0.03233048388493139,-3.1346989990976586,1.0000367400634675,-3.134729059603519,1.0000322671055066,3.3908613288569724,0.04007124763474098,1.5714285714285714,0.6363636363636364
3.294171082744111,0.032749146301619576,-3.1857885824175733,1.0000217353500287,-3.1857965030699593,1.0000049662709645,3.361090236536836,0.04073926480949364,1.573469387755102,0.6355382619974059
3.283485455217192,0.03313442193916507,-3.2367374979414936,1.0000077127562548,-3.236722239338283,0.9999812859285632,3.330466388865101,0.04130850622891852,1.5755102040816327,0.6347150259067358
3.271633688531428,0.033482740115951724,-3.2875464478766045,0.9999948204162651,-3.287507266153249,0.9999614469405338,3.2991433242936963,0.04177711011289911,1.5775510204081633,0.6338939197930142
3.2587521839128124,0.033791015936975484,-3.338216144858095,0.9999831918433812,-3.338152594522265,0.9999456230060911,3.2672582601519626,0.04214376855968517,1.579591836734694,0.6330749354005167
3.2449717241167395,0.034056625167418204,-3.388747310246991,0.9999729447982192,-3.3886592435343643,0.9999339399794878,3.2349352664064,0.04240768589544396,1.5816326530612246,0.632258064516129
3.230417527329666,0.03427737976220177,-3.439140672337924,0.9999641803544805,-3.4390282352508694,0.99992647573343,3.2022879940309528,0.04256854349763225,1.5836734693877552,0.6314432989690721
3.21520953145044,0.03445150467997036,-3.4893969644983756,0.9999569821710305,-3.4892605897170963,0.9999232605327122,3.1694220564383926,0.04262646997583501,1.5857142857142859,0.6306306306306306
3.199462841170171,0.034577616369346836,-3.5395169232640584,0.9999514159767368,-3.539357320135632,0.9999242778795461,3.136437147573899,0.04258201586580558,1.5877551020408165,0.6298200514138816
3.1832882868462145,0.03465470314240778,-3.589501286418202,0.9999475292671343,-3.589319428230745,0.9999294657955821,3.1034289689087924,0.04243613219801196,1.5897959183673471,0.6290115532734274
3.16679305747147,0.03468210752980703,-3.639350791081381,0.9999453512088644,-3.6391478998294846,0.9999387185062951,3.070491029284402,0.04219015247137229,1.5918367346938775,0.6282051282051282
3.1500813804180914,0.03465951063088476,-3.6890661718368327,0.9999448927398419,-3.688843700679223,0.9999518885006476,3.0377163763208808,0.04184577769770901,1.5938775510204082,0.6274007682458387
3.1332552285376156,0.03458691842008642,-3.7386481589116016,0.9999461468497883,-3.738407772522584,0.99996878894219,3.005199315576822,0.041405064305901185,1.5959183673469388,0.6265984654731458
3.116415041001213,0.03446464994056217,-3.788097476427943,0.999949089023456,-3.7878410294524762,0.9999891964108683,2.973037173835936,0.0408704148112767,1.5979591836734695,0.6257982120051085
3.099660448331885,0.034293327300450385,-3.837414840733876,0.9999536778292265,-3.837144354574173,1.0000128539543205,2.9413321658308416,0.04024457127652233,1.6,0.625
