s11a,s11m,s12a,s12m,s21a,s21m,s22a,s22m,wavelengths,freqs
-3.007243705660217,0.040704500786634804,1.375379494501238,1.296018277212796,1.375418112698097,1.2956599664092658,-3.0505458333012836,0.04609449584903608,1.5,0.6666666666666666
-3.0494922630223975,0.04139654133738308,1.2761851716798442,1.294849280448515,1.2762610092761384,1.2945014293782815,-3.1110992311536867,0.04641771877793659,1.5020408163265306,0.6657608695652174
-3.093562811191974,0.04178662846225598,1.177281083050399,1.293702158235176,1.1773916197460654,1.2933744277295418,-3.171954409315908,0.04631951920732067,1.5040816326530613,0.6648575305291723
-3.1385065372948695,0.04186969469938357,1.0786633491249087,1.2925777108315661,1.0788045739790697,1.2922787533258528,-3.232313099387859,0.04580727890342923,1.506122448979592,0.6639566395663956
-3.183447054401846,0.041647497679505596,0.9803280639702484,1.2914760117494009,0.9804946906007238,1.2912131083732512,-3.2913801812185386,0.044895065252334276,1.5081632653061225,0.6630581867388362
-3.227538565911419,0.04112805268628842,0.882271411067781,1.2903964367870508,0.8824571390423717,1.2901752117008505,-3.3483097781418865,0.043603270681314005,1.510204081632653,0.6621621621621622
-3.26992564920538,0.04032525746438529,0.7844897665130931,1.2893377211323245,0.7846875778611938,1.2891619378017571,-3.4021447405423264,0.041958492245111494,1.5122448979591836,0.6612685560053981
-3.309702970321984,0.03925871593945461,0.6869797874030231,1.2882980387588079,0.687182265136607,1.288169480670729,-3.451742524754099,0.0399937116095884,1.5142857142857142,0.6603773584905661
-3.34587357248528,0.037953780226367466,0.5897384845323292,1.2872750980403171,0.5899381386265641,1.2871935353772497,-3.495679007656764,0.0377488801848363,1.5163265306122449,0.6594885598923285
-3.377305318266349,0.036441841795330325,0.49276327984860574,1.2862662473961353,0.49295286513095476,1.2862294907537697,-3.532120138648011,0.035272085172554805,1.5183673469387755,0.6586021505376344
-3.4026873540413063,0.03476089016330062,0.396052045623351,1.285268589817922,0.3962248608541373,1.2852726234105096,-3.5586515437092205,0.03262158784313321,1.5204081632653061,0.6577181208053691
-3.420493177412365,0.03295635670362724,0.29960312345632445,1.284279104078065,0.2997532837382113,1.284318285948616,-3.5720654131121177,0.0298691530003818,1.5224489795918368,0.6568364611260054
-3.4289657670615195,0.031082262938969277,0.20341533080418675,1.283294760749618,0.20353799759783606,1.2833620892248332,-3.5681419091162474,0.027105178024844953,1.5244897959183674,0.6559571619812583
-3.4261571827378177,0.029202507871602442,0.10748794647750136,1.2823126394316733,0.10757951288369548,1.2824000656428016,-3.5415760701569066,0.024445963848752996,1.526530612244898,0.6550802139037433
-3.4100797191651684,0.027391939533109443,0.011820682703019059,1.2813300350318608,0.011878901547309565,1.2814288170511183,-3.486478973438983,0.022041990691282518,1.5285714285714287,0.6542056074766355
-3.379051999141209,0.02573629026550616,-0.08358636174459635,1.2803445589150484,-0.08356230317191433,1.280445631479943,-3.3983302391124384,0.020081471257859286,1.530612244897959,0.6533333333333333
-3.332314849811828,0.024329396046224597,-0.17873275686627926,1.2793542206124904,-0.1787422251669901,1.2794485761244716,-3.278224732074139,0.0187741533892516,1.5326530612244897,0.6524633821571239
-3.2708753308798904,0.023265507659657868,-0.2736178109267126,1.2783574958792265,-0.273658773975266,1.2784365557029793,-3.137716193954759,0.018296668485036038,1.5346938775510204,0.6515957446808511
-3.1982489472645166,0.022625418218485245,-0.36824065070010237,1.2773533766551117,-0.3683097805097519,1.2774093364519068,-2.9978780868276846,0.018711976794313426,1.536734693877551,0.650730411686587
-3.120467259301865,0.022458810283055002,-0.4626003028898645,1.2763413963649874,-0.4626931317991758,1.2763675355389343,-2.879365371406807,0.019931042959531475,1.5387755102040817,0.649867374005305
-3.044891961106221,0.022770283560057197,-0.5566957815039153,1.2753216356865722,-0.5568069020252521,1.2753125752212457,-2.792923883391294,0.021760806215266014,1.5408163265306123,0.6490066225165563
-2.9782532270792537,0.02351747584766307,-0.6505261724263417,1.2742947047910573,-0.6506494727668481,1.2742466051324732,-2.739077078070775,0.023986153055030872,1.542857142857143,0.6481481481481481
-2.9250673378540695,0.024622749907656005,-0.7440907130615991,1.273261704971459,-0.7442196363362117,1.2731723949790474,-2.713091270699985,0.026420893623142608,1.5448979591836736,0.6472919418758256
-2.887216038867474,0.025991372904614424,-0.837388863608101,1.272224169941473,-0.8375166820257234,1.2720932066543904,-2.7090682847877816,0.028920569010277675,1.5469387755102042,0.646437994722955
-2.8644952035329747,0.027527485836971326,-0.9304203674429121,1.2711839928530257,-0.9305404559434287,1.2710126464965346,-2.7217636001506347,0.03137718609243848,1.5489795918367348,0.6455862977602107
-2.855479932596144,0.02914379154316771,-1.0231852971286952,1.2701433389488235,-1.0232913987537358,1.2699345110808171,-2.7470262788199484,0.03371022040875934,1.5510204081632653,0.6447368421052632
-2.858243652056564,0.030765489570611107,-1.115684085668649,1.2691045522816142,-1.1157705537429548,1.2688626268231875,-2.7817087455413394,0.03585906683469538,1.5530612244897959,0.6438896189224704
-2.8708007641016935,0.032330697570756385,-1.2079175422160777,1.2680700569031034,-1.2079795539110783,1.2678006978620493,-2.823448052030873,0.03777770624559723,1.5551020408163265,0.6430446194225722
-2.891321983433222,0.03378929320541708,-1.2998868518270692,1.2670422592947204,-1.2999205837918515,1.266752163350071,-2.87045842921819,0.039431172762518577,1.5571428571428572,0.6422018348623854
-2.918209736971602,0.03510131259231321,-1.3915935598629543,1.2660234565334236,-1.391596317998764,1.265720068655316,-2.9213679264803645,0.04079325588065519,1.5591836734693878,0.6413612565445026
-2.950101659830186,0.036235420980005324,-1.4830395439296384,1.2650157504184785,-1.4830098482504226,1.2647069622707299,-2.975097181601287,0.041844961374733876,1.5612244897959184,0.6405228758169934
-2.9858430392421442,0.03716763731900779,-1.574226971799008,1.264020974378414,-1.574164590166097,1.26371481090346,-3.0307711405438007,0.042573500992453404,1.563265306122449,0.639686684073107
-3.0244491130888,0.037880316523024364,-1.6651582531518234,1.2630406328754398,-1.6650641877596226,1.262744944929206,-3.0876536472371616,0.042971567311323774,1.5653061224489797,0.6388526727509778
-3.0650668692100793,0.03836137188563274,-1.7558359822014744,1.2620758565554588,-1.7557124082414535,1.2617980263226511,-3.1450975898728175,0.043036837965350086,1.5673469387755103,0.6380208333333333
-3.106939804308855,0.038603691821547034,-1.8462628749532797,1.261127371380896,-1.8461130374359151,1.260874044480953,-3.2025045909476577,0.04277161428328661,1.569387755102041,0.6371911573472041
-3.149376253482968,0.03860470003135575,-1.9364417059288856,1.260195483584534,-1.9362697806994909,1.2599723382160797,-3.259289843768298,0.04218255560299673,1.5714285714285714,0.6363636363636364
-3.1917207473562006,0.03836603292532508,-2.0263752451400587,1.2592800822917751,-2.026186166960359,1.259091636230718,-3.314848332695674,0.041280526104136905,1.573469387755102,0.6355382619974059
-3.233327327306126,0.03789331979232726,-2.1160661975555977,1.2583806548707985,-2.115865465296908,1.2582301208354543,-3.3685189030889684,0.04008051893700218,1.5755102040816327,0.6347150259067358
-3.2735335443368756,0.03719606808881707,-2.2055171440628967,1.2574963142997047,-2.205310610646449,1.2573855074135205,-3.4195423176586375,0.03860170489818702,1.5775510204081633,0.6338939197930142
-3.311633983325123,0.036287616946303974,-2.2947304934396584,1.2566258407335371,-2.294524147844759,1.2565551382078448,-3.467008795657135,0.03686761218752331,1.579591836734694,0.6330749354005167
-3.3468522481150798,0.03518520913612173,-2.3837084374873863,1.255767731516982,-2.3835081860767633,1.2557360834716804,-3.5097888479466675,0.03490654243509134,1.5816326530612246,0.632258064516129
-3.378310833780787,0.03391016652802227,-2.472452917392998,1.2549202594339506,-2.472264373286028,1.2549252506853579,-3.5464399492294896,0.032752289179972416,1.5836734693877552,0.6314432989690721
-3.404999120361377,0.03248821489753908,-2.5609655969421707,1.2540815357984887,-2.5607938841964706,1.2541194946014806,-3.5750797996222685,0.03044535921430119,1.5857142857142859,0.6306306306306306
-3.4257418896747174,0.03094996156383238,-2.649247848230931,1.2532495773066086,-2.64909742842274,1.2533157278127225,-3.5932192693228258,0.028034926976440243,1.5877551020408165,0.6298200514138816
-3.439174515733963,0.029331569421970596,-2.7373007444974866,1.2524223747457792,-2.7371752683995476,1.252511022041812,-3.5975604212657633,0.025581938129379637,1.5897959183673471,0.6290115532734274
-3.443738812164966,0.027675592238055265,-2.825125066027567,1.251597959346698,-2.825027258637136,1.251702706182383,-3.5838136338730378,0.023163720198618867,1.5918367346938775,0.6282051282051282
-3.4377260805777707,0.026031895518458897,-2.9127213135528103,1.2507744680492807,-2.9126528913752505,1.2508884473768813,-3.5467182542984137,0.02088027440900349,1.5938775510204082,0.6274007682458387
-3.419412495253195,0.0244583879873728,-3.00008972916281,1.2499501994073872,-3.0000513571252982,1.2500663239206917,-3.4807466979067025,0.018860742982301913,1.5959183673469388,0.6265984654731458
-3.387349764737943,0.023020925145000454,-3.0872303279675055,1.2491236674179875,-3.087221611140151,1.249234876834218,-3.382359545816004,0.017264176771954517,1.5979591836734695,0.6257982120051085
-3.340864770322432,0.02179132931602788,-3.174142935283351,1.2482936434788112,-3.1741624489221603,1.2483931484460347,-3.2543295557044747,0.016261217563453206,1.6,0.625
