s11a,s11m,s21a,s21m,s12a,s12m,s22a,s22m,wavelengths,freqs
3.1258439416899506,0.03483321275965393,-2.025619490603312,0.9995726722419397,-2.1201716085866864,1.0178016528823992,3.0146856657404024,0.013216933181946085,1.5,0.6666666666666666
3.125504411568137,0.03464545771830596,-2.0601072719650326,0.9995680363072025,-2.154762765901261,1.017746858831194,3.1392716110842933,0.013029381166860116,1.5020408163265306,0.6657608695652174
3.125353745536973,0.03445821352380783,-2.094496211270363,0.9995637189832944,-2.18925301977142,1.0176890657427178,3.2631768882804235,0.01316535145132795,1.5040816326530613,0.6648575305291723
3.125394026355034,0.03427188816240958,-2.1287867472521005,0.9995596737007695,-2.223642600354767,1.0176284280060366,3.3789766452704066,0.013606315678702793,1.506122448979592,0.6639566395663956
3.1256266533678736,0.03408689051939431,-2.1629793137170528,0.999555854608703,-2.2579317508224475,1.017565112130368,3.481340614760507,0.014314396051003679,1.5081632653061225,0.6630581867388362
3.126052300220782,0.03390362910051871,-2.197074339631273,0.9995522168308716,-2.2921207281254263,1.0174992954762927,3.5677432407787317,0.015242118459424059,1.510204081632653,0.6621621621621622
3.1266708734559425,0.03372251062434682,-2.2310722492237764,0.9995487167497531,-2.326209803540011,1.0174311649056398,3.638013089444892,0.016341506927244006,1.5122448979591836,0.6612685560053981
3.1274814732832508,0.03354393848861246,-2.264973462143356,0.9995453122859487,-2.3601992630125155,1.0173609154523382,3.693413806585901,0.017569632419200645,1.5142857142857142,0.6603773584905661
3.128482357527454,0.03336831111151315,-2.2987783936446142,0.9995419631367647,-2.39408940729509,1.0172887489859932,3.7358290157599296,0.018890691975418015,1.5163265306122449,0.6594885598923285
3.129670910325611,0.03319602028763547,-2.3324874547876018,0.999538630928699,-2.427880551941911,1.0172148729686807,3.767244535454155,0.02027594431592142,1.5183673469387755,0.6586021505376344
3.131043614543954,0.03302744928956853,-2.3661010526349453,0.9995352793391734,-2.461573027194298,1.0171394992705887,3.7894900956897413,0.021702718049302558,1.5204081632653061,0.6577181208053691
3.132596030626693,0.0328629711226885,-2.3996195904011475,0.9995318741171185,-2.495167177800324,1.0170628430453499,3.8041440000475446,0.0231532098193542,1.5224489795918368,0.6568364611260054
3.134322780650709,0.03270294665006694,-2.4330434675494983,0.9995283830851803,-2.5286633627949158,1.016985121640584,3.8125219169717375,0.02461338989866298,1.5244897959183674,0.6559571619812583
3.13621753874311,0.03254772271444234,-2.466373079837234,0.9995247761326511,-2.562061955245244,1.016906553512303,3.815701864566552,0.026072111809299185,1.526530612244898,0.6550802139037433
3.1382730284202784,0.032397630239034414,-2.499608819331981,0.9995210252272735,-2.5953633419527207,1.0168273571269648,3.8145605431398386,0.027520425565273645,1.5285714285714287,0.6542056074766355
3.1404810276566515,0.03225298231818665,-2.5327510744142114,0.9995171044574803,-2.6285679230895025,1.0167477498316415,3.8098096952651437,0.02895106141294937,1.530612244897959,0.6533333333333333
3.1428323826284994,0.03211407230206274,-2.5658002297904425,0.9995129900968547,-2.6616761117472514,1.0166679467309847,3.802028139134247,0.030358045875041463,1.5326530612244897,0.6524633821571239
3.1453170309357756,0.03198117190729026,-2.5987566665622017,0.9995086606891093,-2.6946883333957254,1.0165881595701505,3.7916883763567,0.03173641694492623,1.5346938775510204,0.6515957446808511
3.1479240350132,0.03185452937564097,-2.6316207623307744,0.9995040971183403,-2.727605025226923,1.01650859565135,3.779178044723719,0.03308201216449032,1.536734693877551,0.650730411686587
3.1506416260809593,0.031734367715033115,-2.6643928913530854,0.9994992826482809,-2.760426635427482,1.0164294568467047,3.7648169550113257,0.034391310042526324,1.5387755102040817,0.649867374005305
3.153457258627698,0.03162088305549122,-2.6970734247148913,0.9994942029093669,-2.7931536223882936,1.0163509387013225,3.7488705290429585,0.03566131042909045,1.5408163265306123,0.6490066225165563
3.156357675019132,0.03151424315486104,-2.7296627305187355,0.9994888458376598,-2.8257864538876727,1.016273229638349,3.73156037883547,0.0368894434550331,1.542857142857143,0.6481481481481481
3.1593289795475403,0.031414586078176106,-2.762161174045989,0.9994832015686045,-2.858325606280127,1.01619651027449,3.7130726445053415,0.03807349950002941,1.5448979591836736,0.6472919418758256
3.1623567210212915,0.031322019065760674,-2.794569117886042,0.9994772623053723,-2.8907715637018767,1.0161209527998853,3.693564585266442,0.03921157477241648,1.5469387755102042,0.646437994722955
3.165425982874677,0.031236617606233304,-2.8268869220326036,0.9994710221878915,-2.923124817321866,1.01604672045123,3.673169811334993,0.04030202854180593,1.5489795918367348,0.6455862977602107
3.168521479754705,0.031158424721553724,-2.8591149439506305,0.9994644771824422,-2.9553858646005082,1.0159739669860954,3.6520024572273644,0.041343449146443764,1.5510204081632653,0.6447368421052632
3.1716276595520387,0.031087450467279173,-2.8912535386356915,0.9994576250032371,-2.9875552085754022,1.0159028362192186,3.6301605282699243,0.04233462665613268,1.5530612244897959,0.6438896189224704
3.1747288097794693,0.03102367166249772,-2.9233030586886657,0.9994504650724718,-3.019633357131423,1.015833461567041,3.6077285989107453,0.04327453062204855,1.5551020408163265,0.6430446194225722
3.177809167177932,0.030967031848023355,-2.9552638544129173,0.9994429985000081,-3.051620822261007,1.0157659656537537,3.584780000593506,0.04416229174347014,1.5571428571428572,0.6422018348623854
3.1808530292268347,0.030917441492364518,-2.9871362739563456,0.9994352280735626,-3.0835181192929872,1.0157004599650807,3.5613786057572345,0.0449971865729015,1.5591836734693878,0.6413612565445026
3.183844866102441,0.0308747784494268,-3.0189206634870893,0.9994271582340081,-3.1153257660968268,1.0156370445745044,3.537580290706838,0.04577862459635948,1.5612244897959184,0.6405228758169934
3.1867694314321455,0.03083888867589876,-3.0506173673921477,0.9994187950208268,-3.1470442822870632,1.0155758079791493,3.5134341418795905,0.04650613718587271,1.563265306122449,0.639686684073107
3.189611870082178,0.030809587208109432,-3.082226728480132,0.9994101459810144,-3.178674188438103,1.0155168270287909,3.488983456056986,0.047179368041714465,1.5653061224489797,0.6388526727509778
3.192357821209029,0.030786659388070216,-3.113749088161048,0.9994012200426836,-3.2102160053355306,1.0154601669523897,3.464266574296373,0.047798064832775475,1.5673469387755103,0.6380208333333333
3.194993514906046,0.030769862324740466,-3.1451847865910145,0.9993920273700635,-3.241670253280948,1.0154058814658669,3.4393175810228658,0.04836207181200814,1.569387755102041,0.6371911573472041
3.197505861012667,0.030758926565060015,-3.1765341627722163,0.9993825792198433,-3.273037451399171,1.0153540127396325,3.4141668910683496,0.048871323530221125,1.5714285714285714,0.6363636363636364
3.199882528973157,0.030753557945753466,-3.2077975546085846,0.9993728878192577,-3.304318117362105,1.015304592599869,3.388841759763198,0.049325837450655455,1.573469387755102,0.6355382619974059
3.2021120179785947,0.030753439595059086,-3.2389752989343124,0.9993629662838456,-3.335512766264574,1.015257640751198,3.363366686431218,0.0497257115519411,1.5755102040816327,0.6347150259067358
3.20418371696177,0.030758234054595244,-3.2700677315312836,0.9993528285805343,-3.366621910720675,1.0152131670002549,3.33776380014748,0.05007111651394973,1.5775510204081633,0.6338939197930142
3.206087954283845,0.03076758549570734,-3.301075187160528,0.9993424895329718,-3.3976460600729164,1.0151711704908537,3.3120531621918174,0.050362292737989256,1.579591836734694,0.6330749354005167
3.207816037148171,0.03078112200465211,-3.3319979996174767,0.9993319648516825,-3.4285857199503784,1.015131640153403,3.2862530393147886,0.050599545952626696,1.5816326530612246,0.632258064516129
3.2093602808654205,0.030798457920855227,-3.3628365018229225,0.9993212711706876,-3.459441391751239,1.015094554987573,3.2603801396493637,0.05078324342036679,1.5836734693877552,0.6314432989690721
3.210714028168935,0.030819196205697313,-3.3935910259355873,0.9993104260650347,-3.490213572112229,1.0150598843947818,3.234449819265002,0.05091381041163641,1.5857142857142859,0.6306306306306306
3.2118716587843186,0.030842930828408187,-3.424261903479649,0.9992994480374738,-3.520902752375071,1.0150275885691797,3.2084762642452054,0.05099172691392736,1.5877551020408165,0.6298200514138816
3.2128285895483746,0.030869249141943562,-3.4548494654525874,0.9992883564630293,-3.5515094180734237,1.0149976189606569,3.1824726523914295,0.051017524550896594,1.5897959183673471,0.6290115532734274
3.2135812654373317,0.03089773423335823,-3.485354042404224,0.9992771715032497,-3.582034048450448,1.014969918786626,3.1564512980252446,0.050991783692201205,1.5918367346938775,0.6282051282051282
3.2141271420754314,0.030927967213291323,-3.5157759644548072,0.9992659140005875,-3.6124771160311884,1.014944423593704,3.1304237828280947,0.05091513073966902,1.5938775510204082,0.6274007682458387
3.214464660439308,0.030959529427782437,-3.546115561262289,0.9992546053827972,-3.642839086245778,1.0149210618281714,3.104401075227194,0.05078823557876127,1.5959183673469388,0.6265984654731458
3.214593214743597,0.030992004558399098,-3.576373161931739,0.9992432675949635,-3.6731204171114347,1.0148997554143508,3.078393640474937,0.050611809186383444,1.5979591836734695,0.6257982120051085
3.2145131146122496,0.03102498059735946,-3.606549094895553,0.999231923080431,-3.703321558948959,1.0148804203030763,3.0524115432884757,0.0503866013866341,1.6,0.625
